 ****** HSPICE -- Q-2020.03-SP2-2 linux64 (Nov  1 2020) ******                  
  Copyright (c) 1986 - 2025 by Synopsys, Inc. All Rights Reserved.              
  This software and the associated documentation are proprietary
  to Synopsys, Inc. This software may only be used in accordance
  with the terms and conditions of a written license agreement with
  Synopsys, Inc. All other use, reproduction, or distribution of
  this software is strictly prohibited.
  Input File: ex1_1.sp                                                          
  Command line options: /RAID2/cad/synopsys/hspice/2020.03-sp2-2/hspice/linux64/hspice -i ex1_1.sp -o ex1_1.lis
  Start time: Tue Mar 18 23:51:00 2025
 lic:  
 lic: FLEXlm: SDK_12.6 
 lic: USER:   es25MCS042           HOSTNAME: ee28 
 lic: HOSTID: "d85ed3efc19a"       PID:      83880 
 lic: Using FLEXlm license file: 
 lic: 26585@lshc 
 lic: Checkout 1 hspice 
 lic: License/Maintenance for hspice will expire on 14-may-2025/2024.09 
 lic: 168(in_use)/1100(total) FLOATING license(s) on SERVER 26585@lshc 
 lic:   
  
      
 **info** set option symb=1 internally to help for convergence.
 *****************************************************************
 ******  option summary
 ******
 runlvl  = 3         bypass  = 2.0000    
 ******
 .title ex1_1

 ****** dc transfer curves tnom=  25.000 temp=  25.000 ******
x

 volt         voltage    voltage   
             q          qb         
    0.          0.       262.6955n 
  100.00000u  100.0000u  262.6013n 
  200.00000u  200.0000u  262.5072n 
  300.00000u  300.0000u  262.4130n 
  400.00000u  400.0000u  262.3188n 
  500.00000u  500.0000u  262.2246n 
  600.00000u  600.0000u  262.1304n 
  700.00000u  700.0000u  262.0362n 
  800.00000u  800.0000u  261.9419n 
  900.00000u  900.0000u  261.8477n 
    1.00000m    1.0000m  261.7535n 
    1.10000m    1.1000m  261.6592n 
    1.20000m    1.2000m  261.5650n 
    1.30000m    1.3000m  261.4707n 
    1.40000m    1.4000m  261.3764n 
    1.50000m    1.5000m  261.2821n 
    1.60000m    1.6000m  261.1878n 
    1.70000m    1.7000m  261.0935n 
    1.80000m    1.8000m  260.9992n 
    1.90000m    1.9000m  260.9049n 
    2.00000m    2.0000m  260.8106n 
    2.10000m    2.1000m  260.7162n 
    2.20000m    2.2000m  260.6219n 
    2.30000m    2.3000m  260.5275n 
    2.40000m    2.4000m  260.4332n 
    2.50000m    2.5000m  260.3388n 
    2.60000m    2.6000m  260.2444n 
    2.70000m    2.7000m  260.1500n 
    2.80000m    2.8000m  260.0556n 
    2.90000m    2.9000m  259.9612n 
    3.00000m    3.0000m  259.8668n 
    3.10000m    3.1000m  259.7724n 
    3.20000m    3.2000m  259.6779n 
    3.30000m    3.3000m  259.5835n 
    3.40000m    3.4000m  259.4890n 
    3.50000m    3.5000m  259.3946n 
    3.60000m    3.6000m  259.3001n 
    3.70000m    3.7000m  259.2056n 
    3.80000m    3.8000m  259.1111n 
    3.90000m    3.9000m  259.0166n 
    4.00000m    4.0000m  258.9221n 
    4.10000m    4.1000m  258.8276n 
    4.20000m    4.2000m  258.7331n 
    4.30000m    4.3000m  258.6386n 
    4.40000m    4.4000m  258.5440n 
    4.50000m    4.5000m  258.4495n 
    4.60000m    4.6000m  258.3549n 
    4.70000m    4.7000m  258.2604n 
    4.80000m    4.8000m  258.1658n 
    4.90000m    4.9000m  258.0712n 
    5.00000m    5.0000m  257.9766n 
    5.10000m    5.1000m  257.8821n 
    5.20000m    5.2000m  257.7875n 
    5.30000m    5.3000m  257.6928n 
    5.40000m    5.4000m  257.5982n 
    5.50000m    5.5000m  257.5036n 
    5.60000m    5.6000m  257.4090n 
    5.70000m    5.7000m  257.3143n 
    5.80000m    5.8000m  257.2197n 
    5.90000m    5.9000m  257.1250n 
    6.00000m    6.0000m  257.0303n 
    6.10000m    6.1000m  256.9357n 
    6.20000m    6.2000m  256.8410n 
    6.30000m    6.3000m  256.7463n 
    6.40000m    6.4000m  256.6516n 
    6.50000m    6.5000m  256.5569n 
    6.60000m    6.6000m  256.4622n 
    6.70000m    6.7000m  256.3674n 
    6.80000m    6.8000m  256.2727n 
    6.90000m    6.9000m  256.1780n 
    7.00000m    7.0000m  256.0832n 
    7.10000m    7.1000m  255.9885n 
    7.20000m    7.2000m  255.8937n 
    7.30000m    7.3000m  255.7989n 
    7.40000m    7.4000m  255.7041n 
    7.50000m    7.5000m  255.6093n 
    7.60000m    7.6000m  255.5145n 
    7.70000m    7.7000m  255.4197n 
    7.80000m    7.8000m  255.3249n 
    7.90000m    7.9000m  255.2301n 
    8.00000m    8.0000m  255.1353n 
    8.10000m    8.1000m  255.0405n 
    8.20000m    8.2000m  254.9456n 
    8.30000m    8.3000m  254.8508n 
    8.40000m    8.4000m  254.7559n 
    8.50000m    8.5000m  254.6610n 
    8.60000m    8.6000m  254.5662n 
    8.70000m    8.7000m  254.4713n 
    8.80000m    8.8000m  254.3764n 
    8.90000m    8.9000m  254.2815n 
    9.00000m    9.0000m  254.1866n 
    9.10000m    9.1000m  254.0917n 
    9.20000m    9.2000m  253.9968n 
    9.30000m    9.3000m  253.9018n 
    9.40000m    9.4000m  253.8069n 
    9.50000m    9.5000m  253.7119n 
    9.60000m    9.6000m  253.6170n 
    9.70000m    9.7000m  253.5220n 
    9.80000m    9.8000m  253.4271n 
    9.90000m    9.9000m  253.3321n 
   10.00000m   10.0000m  253.2371n 
   10.10000m   10.1000m  253.1421n 
   10.20000m   10.2000m  253.0471n 
   10.30000m   10.3000m  252.9521n 
   10.40000m   10.4000m  252.8571n 
   10.50000m   10.5000m  252.7621n 
   10.60000m   10.6000m  252.6671n 
   10.70000m   10.7000m  252.5721n 
   10.80000m   10.8000m  252.4770n 
   10.90000m   10.9000m  252.3820n 
   11.00000m   11.0000m  252.2869n 
   11.10000m   11.1000m  252.1919n 
   11.20000m   11.2000m  252.0968n 
   11.30000m   11.3000m  252.0017n 
   11.40000m   11.4000m  251.9066n 
   11.50000m   11.5000m  251.8115n 
   11.60000m   11.6000m  251.7164n 
   11.70000m   11.7000m  251.6213n 
   11.80000m   11.8000m  251.5262n 
   11.90000m   11.9000m  251.4311n 
   12.00000m   12.0000m  251.3360n 
   12.10000m   12.1000m  251.2408n 
   12.20000m   12.2000m  251.1457n 
   12.30000m   12.3000m  251.0506n 
   12.40000m   12.4000m  250.9554n 
   12.50000m   12.5000m  250.8602n 
   12.60000m   12.6000m  250.7651n 
   12.70000m   12.7000m  250.6699n 
   12.80000m   12.8000m  250.5747n 
   12.90000m   12.9000m  250.4795n 
   13.00000m   13.0000m  250.3843n 
   13.10000m   13.1000m  250.2891n 
   13.20000m   13.2000m  250.1939n 
   13.30000m   13.3000m  250.0987n 
   13.40000m   13.4000m  250.0035n 
   13.50000m   13.5000m  249.9082n 
   13.60000m   13.6000m  249.8130n 
   13.70000m   13.7000m  249.7177n 
   13.80000m   13.8000m  249.6225n 
   13.90000m   13.9000m  249.5272n 
   14.00000m   14.0000m  249.4320n 
   14.10000m   14.1000m  249.3367n 
   14.20000m   14.2000m  249.2414n 
   14.30000m   14.3000m  249.1461n 
   14.40000m   14.4000m  249.0508n 
   14.50000m   14.5000m  248.9555n 
   14.60000m   14.6000m  248.8602n 
   14.70000m   14.7000m  248.7649n 
   14.80000m   14.8000m  248.6696n 
   14.90000m   14.9000m  248.5743n 
   15.00000m   15.0000m  248.4789n 
   15.10000m   15.1000m  248.3836n 
   15.20000m   15.2000m  248.2883n 
   15.30000m   15.3000m  248.1929n 
   15.40000m   15.4000m  248.0975n 
   15.50000m   15.5000m  248.0022n 
   15.60000m   15.6000m  247.9068n 
   15.70000m   15.7000m  247.8114n 
   15.80000m   15.8000m  247.7160n 
   15.90000m   15.9000m  247.6206n 
   16.00000m   16.0000m  247.5252n 
   16.10000m   16.1000m  247.4298n 
   16.20000m   16.2000m  247.3344n 
   16.30000m   16.3000m  247.2390n 
   16.40000m   16.4000m  247.1436n 
   16.50000m   16.5000m  247.0482n 
   16.60000m   16.6000m  246.9527n 
   16.70000m   16.7000m  246.8573n 
   16.80000m   16.8000m  246.7618n 
   16.90000m   16.9000m  246.6664n 
   17.00000m   17.0000m  246.5709n 
   17.10000m   17.1000m  246.4754n 
   17.20000m   17.2000m  246.3800n 
   17.30000m   17.3000m  246.2845n 
   17.40000m   17.4000m  246.1890n 
   17.50000m   17.5000m  246.0935n 
   17.60000m   17.6000m  245.9980n 
   17.70000m   17.7000m  245.9025n 
   17.80000m   17.8000m  245.8070n 
   17.90000m   17.9000m  245.7115n 
   18.00000m   18.0000m  245.6159n 
   18.10000m   18.1000m  245.5204n 
   18.20000m   18.2000m  245.4249n 
   18.30000m   18.3000m  245.3293n 
   18.40000m   18.4000m  245.2338n 
   18.50000m   18.5000m  245.1382n 
   18.60000m   18.6000m  245.0427n 
   18.70000m   18.7000m  244.9471n 
   18.80000m   18.8000m  244.8515n 
   18.90000m   18.9000m  244.7559n 
   19.00000m   19.0000m  244.6603n 
   19.10000m   19.1000m  244.5648n 
   19.20000m   19.2000m  244.4692n 
   19.30000m   19.3000m  244.3736n 
   19.40000m   19.4000m  244.2779n 
   19.50000m   19.5000m  244.1823n 
   19.60000m   19.6000m  244.0867n 
   19.70000m   19.7000m  243.9911n 
   19.80000m   19.8000m  243.8955n 
   19.90000m   19.9000m  243.7998n 
   20.00000m   20.0000m  243.7042n 
   20.10000m   20.1000m  243.6085n 
   20.20000m   20.2000m  243.5129n 
   20.30000m   20.3000m  243.4172n 
   20.40000m   20.4000m  243.3215n 
   20.50000m   20.5000m  243.2259n 
   20.60000m   20.6000m  243.1302n 
   20.70000m   20.7000m  243.0345n 
   20.80000m   20.8000m  242.9388n 
   20.90000m   20.9000m  242.8431n 
   21.00000m   21.0000m  242.7474n 
   21.10000m   21.1000m  242.6517n 
   21.20000m   21.2000m  242.5560n 
   21.30000m   21.3000m  242.4603n 
   21.40000m   21.4000m  242.3646n 
   21.50000m   21.5000m  242.2688n 
   21.60000m   21.6000m  242.1731n 
   21.70000m   21.7000m  242.0773n 
   21.80000m   21.8000m  241.9816n 
   21.90000m   21.9000m  241.8859n 
   22.00000m   22.0000m  241.7901n 
   22.10000m   22.1000m  241.6943n 
   22.20000m   22.2000m  241.5986n 
   22.30000m   22.3000m  241.5028n 
   22.40000m   22.4000m  241.4070n 
   22.50000m   22.5000m  241.3112n 
   22.60000m   22.6000m  241.2154n 
   22.70000m   22.7000m  241.1196n 
   22.80000m   22.8000m  241.0239n 
   22.90000m   22.9000m  240.9280n 
   23.00000m   23.0000m  240.8322n 
   23.10000m   23.1000m  240.7364n 
   23.20000m   23.2000m  240.6406n 
   23.30000m   23.3000m  240.5448n 
   23.40000m   23.4000m  240.4489n 
   23.50000m   23.5000m  240.3531n 
   23.60000m   23.6000m  240.2573n 
   23.70000m   23.7000m  240.1614n 
   23.80000m   23.8000m  240.0656n 
   23.90000m   23.9000m  239.9697n 
   24.00000m   24.0000m  239.8738n 
   24.10000m   24.1000m  239.7780n 
   24.20000m   24.2000m  239.6821n 
   24.30000m   24.3000m  239.5862n 
   24.40000m   24.4000m  239.4904n 
   24.50000m   24.5000m  239.3945n 
   24.60000m   24.6000m  239.2986n 
   24.70000m   24.7000m  239.2027n 
   24.80000m   24.8000m  239.1068n 
   24.90000m   24.9000m  239.0109n 
   25.00000m   25.0000m  238.9150n 
   25.10000m   25.1000m  238.8190n 
   25.20000m   25.2000m  238.7231n 
   25.30000m   25.3000m  238.6272n 
   25.40000m   25.4000m  238.5313n 
   25.50000m   25.5000m  238.4353n 
   25.60000m   25.6000m  238.3394n 
   25.70000m   25.7000m  238.2434n 
   25.80000m   25.8000m  238.1475n 
   25.90000m   25.9000m  238.0515n 
   26.00000m   26.0000m  237.9556n 
   26.10000m   26.1000m  237.8596n 
   26.20000m   26.2000m  237.7636n 
   26.30000m   26.3000m  237.6677n 
   26.40000m   26.4000m  237.5717n 
   26.50000m   26.5000m  237.4757n 
   26.60000m   26.6000m  237.3797n 
   26.70000m   26.7000m  237.2837n 
   26.80000m   26.8000m  237.1877n 
   26.90000m   26.9000m  237.0917n 
   27.00000m   27.0000m  236.9957n 
   27.10000m   27.1000m  236.8997n 
   27.20000m   27.2000m  236.8037n 
   27.30000m   27.3000m  236.7077n 
   27.40000m   27.4000m  236.6116n 
   27.50000m   27.5000m  236.5156n 
   27.60000m   27.6000m  236.4196n 
   27.70000m   27.7000m  236.3235n 
   27.80000m   27.8000m  236.2275n 
   27.90000m   27.9000m  236.1314n 
   28.00000m   28.0000m  236.0354n 
   28.10000m   28.1000m  235.9393n 
   28.20000m   28.2000m  235.8433n 
   28.30000m   28.3000m  235.7472n 
   28.40000m   28.4000m  235.6512n 
   28.50000m   28.5000m  235.5551n 
   28.60000m   28.6000m  235.4590n 
   28.70000m   28.7000m  235.3629n 
   28.80000m   28.8000m  235.2668n 
   28.90000m   28.9000m  235.1707n 
   29.00000m   29.0000m  235.0746n 
   29.10000m   29.1000m  234.9786n 
   29.20000m   29.2000m  234.8824n 
   29.30000m   29.3000m  234.7863n 
   29.40000m   29.4000m  234.6902n 
   29.50000m   29.5000m  234.5941n 
   29.60000m   29.6000m  234.4980n 
   29.70000m   29.7000m  234.4019n 
   29.80000m   29.8000m  234.3057n 
   29.90000m   29.9000m  234.2096n 
   30.00000m   30.0000m  234.1135n 
   30.10000m   30.1000m  234.0173n 
   30.20000m   30.2000m  233.9212n 
   30.30000m   30.3000m  233.8250n 
   30.40000m   30.4000m  233.7289n 
   30.50000m   30.5000m  233.6327n 
   30.60000m   30.6000m  233.5366n 
   30.70000m   30.7000m  233.4404n 
   30.80000m   30.8000m  233.3443n 
   30.90000m   30.9000m  233.2481n 
   31.00000m   31.0000m  233.1519n 
   31.10000m   31.1000m  233.0557n 
   31.20000m   31.2000m  232.9595n 
   31.30000m   31.3000m  232.8634n 
   31.40000m   31.4000m  232.7672n 
   31.50000m   31.5000m  232.6710n 
   31.60000m   31.6000m  232.5748n 
   31.70000m   31.7000m  232.4786n 
   31.80000m   31.8000m  232.3824n 
   31.90000m   31.9000m  232.2862n 
   32.00000m   32.0000m  232.1900n 
   32.10000m   32.1000m  232.0937n 
   32.20000m   32.2000m  231.9975n 
   32.30000m   32.3000m  231.9013n 
   32.40000m   32.4000m  231.8051n 
   32.50000m   32.5000m  231.7088n 
   32.60000m   32.6000m  231.6126n 
   32.70000m   32.7000m  231.5164n 
   32.80000m   32.8000m  231.4201n 
   32.90000m   32.9000m  231.3239n 
   33.00000m   33.0000m  231.2276n 
   33.10000m   33.1000m  231.1314n 
   33.20000m   33.2000m  231.0351n 
   33.30000m   33.3000m  230.9389n 
   33.40000m   33.4000m  230.8426n 
   33.50000m   33.5000m  230.7463n 
   33.60000m   33.6000m  230.6501n 
   33.70000m   33.7000m  230.5538n 
   33.80000m   33.8000m  230.4575n 
   33.90000m   33.9000m  230.3613n 
   34.00000m   34.0000m  230.2650n 
   34.10000m   34.1000m  230.1687n 
   34.20000m   34.2000m  230.0724n 
   34.30000m   34.3000m  229.9761n 
   34.40000m   34.4000m  229.8798n 
   34.50000m   34.5000m  229.7835n 
   34.60000m   34.6000m  229.6872n 
   34.70000m   34.7000m  229.5909n 
   34.80000m   34.8000m  229.4946n 
   34.90000m   34.9000m  229.3983n 
   35.00000m   35.0000m  229.3020n 
   35.10000m   35.1000m  229.2057n 
   35.20000m   35.2000m  229.1093n 
   35.30000m   35.3000m  229.0130n 
   35.40000m   35.4000m  228.9167n 
   35.50000m   35.5000m  228.8204n 
   35.60000m   35.6000m  228.7240n 
   35.70000m   35.7000m  228.6277n 
   35.80000m   35.8000m  228.5314n 
   35.90000m   35.9000m  228.4350n 
   36.00000m   36.0000m  228.3387n 
   36.10000m   36.1000m  228.2423n 
   36.20000m   36.2000m  228.1460n 
   36.30000m   36.3000m  228.0496n 
   36.40000m   36.4000m  227.9533n 
   36.50000m   36.5000m  227.8569n 
   36.60000m   36.6000m  227.7606n 
   36.70000m   36.7000m  227.6642n 
   36.80000m   36.8000m  227.5678n 
   36.90000m   36.9000m  227.4715n 
   37.00000m   37.0000m  227.3751n 
   37.10000m   37.1000m  227.2787n 
   37.20000m   37.2000m  227.1823n 
   37.30000m   37.3000m  227.0860n 
   37.40000m   37.4000m  226.9896n 
   37.50000m   37.5000m  226.8932n 
   37.60000m   37.6000m  226.7968n 
   37.70000m   37.7000m  226.7004n 
   37.80000m   37.8000m  226.6040n 
   37.90000m   37.9000m  226.5076n 
   38.00000m   38.0000m  226.4112n 
   38.10000m   38.1000m  226.3148n 
   38.20000m   38.2000m  226.2184n 
   38.30000m   38.3000m  226.1220n 
   38.40000m   38.4000m  226.0256n 
   38.50000m   38.5000m  225.9292n 
   38.60000m   38.6000m  225.8328n 
   38.70000m   38.7000m  225.7364n 
   38.80000m   38.8000m  225.6400n 
   38.90000m   38.9000m  225.5435n 
   39.00000m   39.0000m  225.4471n 
   39.10000m   39.1000m  225.3507n 
   39.20000m   39.2000m  225.2543n 
   39.30000m   39.3000m  225.1578n 
   39.40000m   39.4000m  225.0614n 
   39.50000m   39.5000m  224.9650n 
   39.60000m   39.6000m  224.8685n 
   39.70000m   39.7000m  224.7721n 
   39.80000m   39.8000m  224.6756n 
   39.90000m   39.9000m  224.5792n 
   40.00000m   40.0000m  224.4828n 
   40.10000m   40.1000m  224.3863n 
   40.20000m   40.2000m  224.2899n 
   40.30000m   40.3000m  224.1934n 
   40.40000m   40.4000m  224.0970n 
   40.50000m   40.5000m  224.0005n 
   40.60000m   40.6000m  223.9040n 
   40.70000m   40.7000m  223.8076n 
   40.80000m   40.8000m  223.7111n 
   40.90000m   40.9000m  223.6147n 
   41.00000m   41.0000m  223.5182n 
   41.10000m   41.1000m  223.4217n 
   41.20000m   41.2000m  223.3252n 
   41.30000m   41.3000m  223.2288n 
   41.40000m   41.4000m  223.1323n 
   41.50000m   41.5000m  223.0358n 
   41.60000m   41.6000m  222.9393n 
   41.70000m   41.7000m  222.8429n 
   41.80000m   41.8000m  222.7464n 
   41.90000m   41.9000m  222.6499n 
   42.00000m   42.0000m  222.5534n 
   42.10000m   42.1000m  222.4569n 
   42.20000m   42.2000m  222.3604n 
   42.30000m   42.3000m  222.2640n 
   42.40000m   42.4000m  222.1675n 
   42.50000m   42.5000m  222.0710n 
   42.60000m   42.6000m  221.9745n 
   42.70000m   42.7000m  221.8780n 
   42.80000m   42.8000m  221.7815n 
   42.90000m   42.9000m  221.6850n 
   43.00000m   43.0000m  221.5885n 
   43.10000m   43.1000m  221.4920n 
   43.20000m   43.2000m  221.3955n 
   43.30000m   43.3000m  221.2990n 
   43.40000m   43.4000m  221.2025n 
   43.50000m   43.5000m  221.1059n 
   43.60000m   43.6000m  221.0094n 
   43.70000m   43.7000m  220.9129n 
   43.80000m   43.8000m  220.8164n 
   43.90000m   43.9000m  220.7199n 
   44.00000m   44.0000m  220.6234n 
   44.10000m   44.1000m  220.5269n 
   44.20000m   44.2000m  220.4303n 
   44.30000m   44.3000m  220.3338n 
   44.40000m   44.4000m  220.2373n 
   44.50000m   44.5000m  220.1408n 
   44.60000m   44.6000m  220.0442n 
   44.70000m   44.7000m  219.9477n 
   44.80000m   44.8000m  219.8512n 
   44.90000m   44.9000m  219.7547n 
   45.00000m   45.0000m  219.6581n 
   45.10000m   45.1000m  219.5616n 
   45.20000m   45.2000m  219.4651n 
   45.30000m   45.3000m  219.3685n 
   45.40000m   45.4000m  219.2720n 
   45.50000m   45.5000m  219.1755n 
   45.60000m   45.6000m  219.0789n 
   45.70000m   45.7000m  218.9824n 
   45.80000m   45.8000m  218.8858n 
   45.90000m   45.9000m  218.7893n 
   46.00000m   46.0000m  218.6928n 
   46.10000m   46.1000m  218.5962n 
   46.20000m   46.2000m  218.4997n 
   46.30000m   46.3000m  218.4031n 
   46.40000m   46.4000m  218.3066n 
   46.50000m   46.5000m  218.2100n 
   46.60000m   46.6000m  218.1135n 
   46.70000m   46.7000m  218.0170n 
   46.80000m   46.8000m  217.9204n 
   46.90000m   46.9000m  217.8239n 
   47.00000m   47.0000m  217.7273n 
   47.10000m   47.1000m  217.6308n 
   47.20000m   47.2000m  217.5342n 
   47.30000m   47.3000m  217.4376n 
   47.40000m   47.4000m  217.3411n 
   47.50000m   47.5000m  217.2445n 
   47.60000m   47.6000m  217.1480n 
   47.70000m   47.7000m  217.0514n 
   47.80000m   47.8000m  216.9549n 
   47.90000m   47.9000m  216.8583n 
   48.00000m   48.0000m  216.7618n 
   48.10000m   48.1000m  216.6652n 
   48.20000m   48.2000m  216.5686n 
   48.30000m   48.3000m  216.4721n 
   48.40000m   48.4000m  216.3755n 
   48.50000m   48.5000m  216.2790n 
   48.60000m   48.6000m  216.1824n 
   48.70000m   48.7000m  216.0858n 
   48.80000m   48.8000m  215.9893n 
   48.90000m   48.9000m  215.8927n 
   49.00000m   49.0000m  215.7961n 
   49.10000m   49.1000m  215.6996n 
   49.20000m   49.2000m  215.6030n 
   49.30000m   49.3000m  215.5065n 
   49.40000m   49.4000m  215.4099n 
   49.50000m   49.5000m  215.3133n 
   49.60000m   49.6000m  215.2168n 
   49.70000m   49.7000m  215.1202n 
   49.80000m   49.8000m  215.0236n 
   49.90000m   49.9000m  214.9271n 
   50.00000m   50.0000m  214.8305n 
   50.10000m   50.1000m  214.7339n 
   50.20000m   50.2000m  214.6374n 
   50.30000m   50.3000m  214.5408n 
   50.40000m   50.4000m  214.4442n 
   50.50000m   50.5000m  214.3477n 
   50.60000m   50.6000m  214.2511n 
   50.70000m   50.7000m  214.1545n 
   50.80000m   50.8000m  214.0580n 
   50.90000m   50.9000m  213.9614n 
   51.00000m   51.0000m  213.8648n 
   51.10000m   51.1000m  213.7682n 
   51.20000m   51.2000m  213.6717n 
   51.30000m   51.3000m  213.5751n 
   51.40000m   51.4000m  213.4785n 
