 ****** HSPICE -- Q-2020.03-SP2-2 linux64 (Nov  1 2020) ******                  
  Copyright (c) 1986 - 2025 by Synopsys, Inc. All Rights Reserved.              
  This software and the associated documentation are proprietary
  to Synopsys, Inc. This software may only be used in accordance
  with the terms and conditions of a written license agreement with
  Synopsys, Inc. All other use, reproduction, or distribution of
  this software is strictly prohibited.
  Input File: ex1_1.sp                                                          
  Command line options: /RAID2/cad/synopsys/hspice/2020.03-sp2-2/hspice/linux64/hspice -i ex1_1.sp -o ex1_1.lis
  Start time: Tue Mar 18 22:52:29 2025
 lic:  
 lic: FLEXlm: SDK_12.6 
 lic: USER:   es25MCS042           HOSTNAME: ee28 
 lic: HOSTID: "d85ed3efc19a"       PID:      48025 
 lic: Using FLEXlm license file: 
 lic: 26585@lshc 
 lic: Checkout 1 hspice 
 lic: License/Maintenance for hspice will expire on 14-may-2025/2024.09 
 lic: 212(in_use)/1100(total) FLOATING license(s) on SERVER 26585@lshc 
 lic:   
  
      
 *****************************************************************
 ******  option summary
 ******
 runlvl  = 3         bypass  = 2.0000    

 **info** rebuilding matrix with pivot option


 **info** rebuilding matrix without pivot option

 convergence problems in dc sweep curves at -0.49187    
  resimulating with dc convergence controls

 convergence problems in dc sweep curves at -0.48877    
  resimulating with dc convergence controls

 convergence problems in dc sweep curves at -0.48147    
  resimulating with dc convergence controls

 convergence problems in dc sweep curves at -0.47437    
  resimulating with dc convergence controls

 convergence problems in dc sweep curves at -0.47227    
  resimulating with dc convergence controls

 convergence problems in dc sweep curves at -0.46237    
  resimulating with dc convergence controls

 convergence problems in dc sweep curves at -0.45537    
  resimulating with dc convergence controls

 convergence problems in dc sweep curves at -0.45307    
  resimulating with dc convergence controls

 convergence problems in dc sweep curves at -0.45077    
  resimulating with dc convergence controls

 convergence problems in dc sweep curves at -0.44787    
  resimulating with dc convergence controls

 convergence problems in dc sweep curves at -0.44527    
  resimulating with dc convergence controls

 convergence problems in dc sweep curves at -0.44327    
  resimulating with dc convergence controls

 convergence problems in dc sweep curves at -0.44117    
  resimulating with dc convergence controls

 convergence problems in dc sweep curves at -0.43597    
  resimulating with dc convergence controls

 convergence problems in dc sweep curves at -0.42807    
  resimulating with dc convergence controls

 convergence problems in dc sweep curves at -0.42707    
  resimulating with dc convergence controls

 convergence problems in dc sweep curves at -0.42497    
  resimulating with dc convergence controls

 convergence problems in dc sweep curves at -0.42367    
  resimulating with dc convergence controls

 convergence problems in dc sweep curves at -0.42107    
  resimulating with dc convergence controls

 convergence problems in dc sweep curves at -0.40387    
  resimulating with dc convergence controls

 convergence problems in dc sweep curves at -0.39787    
  resimulating with dc convergence controls

 convergence problems in dc sweep curves at -0.39487    
  resimulating with dc convergence controls

 convergence problems in dc sweep curves at -0.38377    
  resimulating with dc convergence controls

 convergence problems in dc sweep curves at -0.38277    
  resimulating with dc convergence controls

 convergence problems in dc sweep curves at -0.38247    
  resimulating with dc convergence controls

 convergence problems in dc sweep curves at -0.38137    
  resimulating with dc convergence controls

 convergence problems in dc sweep curves at -0.35817    
  resimulating with dc convergence controls

 convergence problems in dc sweep curves at -0.35147    
  resimulating with dc convergence controls

 convergence problems in dc sweep curves at -0.34647    
  resimulating with dc convergence controls

 convergence problems in dc sweep curves at -0.34117    
  resimulating with dc convergence controls

 convergence problems in dc sweep curves at -0.32857    
  resimulating with dc convergence controls

 convergence problems in dc sweep curves at -0.32457    
  resimulating with dc convergence controls

 convergence problems in dc sweep curves at -0.32427    
  resimulating with dc convergence controls

 convergence problems in dc sweep curves at -0.32127    
  resimulating with dc convergence controls

 convergence problems in dc sweep curves at -0.31517    
  resimulating with dc convergence controls

 convergence problems in dc sweep curves at -0.29707    
  resimulating with dc convergence controls

 convergence problems in dc sweep curves at -0.29097    
  resimulating with dc convergence controls

 convergence problems in dc sweep curves at -0.28717    
  resimulating with dc convergence controls

 convergence problems in dc sweep curves at -0.27987    
  resimulating with dc convergence controls

 convergence problems in dc sweep curves at -0.27537    
  resimulating with dc convergence controls

 convergence problems in dc sweep curves at -0.27287    
  resimulating with dc convergence controls

 convergence problems in dc sweep curves at -0.26787    
  resimulating with dc convergence controls

 convergence problems in dc sweep curves at -0.26677    
  resimulating with dc convergence controls

 convergence problems in dc sweep curves at -0.26477    
  resimulating with dc convergence controls

 convergence problems in dc sweep curves at -0.26177    
  resimulating with dc convergence controls

 convergence problems in dc sweep curves at -0.26077    
  resimulating with dc convergence controls

 convergence problems in dc sweep curves at -0.25977    
  resimulating with dc convergence controls

 convergence problems in dc sweep curves at -0.25897    
  resimulating with dc convergence controls

 convergence problems in dc sweep curves at -0.25247    
  resimulating with dc convergence controls

 convergence problems in dc sweep curves at -0.24967    
  resimulating with dc convergence controls

 convergence problems in dc sweep curves at -0.24937    
  resimulating with dc convergence controls

 convergence problems in dc sweep curves at -0.24057    
  resimulating with dc convergence controls

 convergence problems in dc sweep curves at -0.23947    
  resimulating with dc convergence controls

 convergence problems in dc sweep curves at -0.22557    
  resimulating with dc convergence controls

 convergence problems in dc sweep curves at -0.21377    
  resimulating with dc convergence controls

 convergence problems in dc sweep curves at -0.20527    
  resimulating with dc convergence controls

 convergence problems in dc sweep curves at -0.20517    
  resimulating with dc convergence controls

 convergence problems in dc sweep curves at -0.20247    
  resimulating with dc convergence controls

 convergence problems in dc sweep curves at -0.18727    
  resimulating with dc convergence controls

 convergence problems in dc sweep curves at -0.17087    
  resimulating with dc convergence controls

 convergence problems in dc sweep curves at -0.16667    
  resimulating with dc convergence controls

 convergence problems in dc sweep curves at -0.15657    
  resimulating with dc convergence controls

 convergence problems in dc sweep curves at -0.14057    
  resimulating with dc convergence controls

 convergence problems in dc sweep curves at -0.12547    
  resimulating with dc convergence controls

 convergence problems in dc sweep curves at -0.12127    
  resimulating with dc convergence controls

 convergence problems in dc sweep curves at -0.11027    
  resimulating with dc convergence controls

 convergence problems in dc sweep curves at -0.10927    
  resimulating with dc convergence controls

 convergence problems in dc sweep curves at -9.56747E-02
  resimulating with dc convergence controls

 convergence problems in dc sweep curves at -9.36747E-02
  resimulating with dc convergence controls

 convergence problems in dc sweep curves at -8.51747E-02
  resimulating with dc convergence controls

 convergence problems in dc sweep curves at -7.70747E-02
  resimulating with dc convergence controls

 convergence problems in dc sweep curves at -7.65747E-02
  resimulating with dc convergence controls

 convergence problems in dc sweep curves at -7.43747E-02
  resimulating with dc convergence controls

 convergence problems in dc sweep curves at -7.35747E-02
  resimulating with dc convergence controls

 convergence problems in dc sweep curves at -6.39747E-02
  resimulating with dc convergence controls

 convergence problems in dc sweep curves at -5.90747E-02
  resimulating with dc convergence controls

 convergence problems in dc sweep curves at -5.22747E-02
  resimulating with dc convergence controls

 convergence problems in dc sweep curves at -4.72747E-02
  resimulating with dc convergence controls

 convergence problems in dc sweep curves at -4.65747E-02
  resimulating with dc convergence controls

 convergence problems in dc sweep curves at -3.67747E-02
  resimulating with dc convergence controls

 convergence problems in dc sweep curves at -3.64747E-02
  resimulating with dc convergence controls

 convergence problems in dc sweep curves at -2.94747E-02
  resimulating with dc convergence controls

 convergence problems in dc sweep curves at -2.71747E-02
  resimulating with dc convergence controls

 convergence problems in dc sweep curves at -2.49747E-02
  resimulating with dc convergence controls

 convergence problems in dc sweep curves at -2.17747E-02
  resimulating with dc convergence controls

 convergence problems in dc sweep curves at -2.14747E-02
  resimulating with dc convergence controls

 convergence problems in dc sweep curves at -1.68747E-02
  resimulating with dc convergence controls

 convergence problems in dc sweep curves at -1.37747E-02
  resimulating with dc convergence controls

 convergence problems in dc sweep curves at -1.25747E-02
  resimulating with dc convergence controls

 convergence problems in dc sweep curves at -1.06747E-02
  resimulating with dc convergence controls

 convergence problems in dc sweep curves at -1.04747E-02
  resimulating with dc convergence controls

 convergence problems in dc sweep curves at -1.03747E-02
  resimulating with dc convergence controls

 convergence problems in dc sweep curves at -8.37475E-03
  resimulating with dc convergence controls

 convergence problems in dc sweep curves at -4.77475E-03
  resimulating with dc convergence controls

 convergence problems in dc sweep curves at -2.27475E-03
  resimulating with dc convergence controls

 convergence problems in dc sweep curves at  2.82525E-03
  resimulating with dc convergence controls

 convergence problems in dc sweep curves at  3.72525E-03
  resimulating with dc convergence controls

 convergence problems in dc sweep curves at  4.82525E-03
  resimulating with dc convergence controls

 convergence problems in dc sweep curves at  8.92525E-03
  resimulating with dc convergence controls

 convergence problems in dc sweep curves at  1.12253E-02
  resimulating with dc convergence controls

 convergence problems in dc sweep curves at  1.13253E-02
  resimulating with dc convergence controls

 convergence problems in dc sweep curves at  2.52253E-02
  resimulating with dc convergence controls

 convergence problems in dc sweep curves at  2.84253E-02
  resimulating with dc convergence controls

 convergence problems in dc sweep curves at  2.94253E-02
  resimulating with dc convergence controls

 convergence problems in dc sweep curves at  3.10253E-02
  resimulating with dc convergence controls

 convergence problems in dc sweep curves at  3.15253E-02
  resimulating with dc convergence controls

 convergence problems in dc sweep curves at  3.29253E-02
  resimulating with dc convergence controls

 convergence problems in dc sweep curves at  3.49253E-02
  resimulating with dc convergence controls

 convergence problems in dc sweep curves at  3.54253E-02
  resimulating with dc convergence controls

 convergence problems in dc sweep curves at  3.91253E-02
  resimulating with dc convergence controls

 convergence problems in dc sweep curves at  4.34253E-02
  resimulating with dc convergence controls

 convergence problems in dc sweep curves at  4.87253E-02
  resimulating with dc convergence controls

 convergence problems in dc sweep curves at  5.93253E-02
  resimulating with dc convergence controls

 convergence problems in dc sweep curves at  6.12253E-02
  resimulating with dc convergence controls

 convergence problems in dc sweep curves at  6.47253E-02
  resimulating with dc convergence controls

 convergence problems in dc sweep curves at  7.05253E-02
  resimulating with dc convergence controls

 convergence problems in dc sweep curves at  8.29253E-02
  resimulating with dc convergence controls

 convergence problems in dc sweep curves at  8.84253E-02
  resimulating with dc convergence controls

 convergence problems in dc sweep curves at  9.20253E-02
  resimulating with dc convergence controls

 convergence problems in dc sweep curves at  9.65253E-02
  resimulating with dc convergence controls

 convergence problems in dc sweep curves at  0.10893    
  resimulating with dc convergence controls

 convergence problems in dc sweep curves at  0.11033    
  resimulating with dc convergence controls

 convergence problems in dc sweep curves at  0.12003    
  resimulating with dc convergence controls

 convergence problems in dc sweep curves at  0.14593    
  resimulating with dc convergence controls

 convergence problems in dc sweep curves at  0.15143    
  resimulating with dc convergence controls

 convergence problems in dc sweep curves at  0.15843    
  resimulating with dc convergence controls

 convergence problems in dc sweep curves at  0.15853    
  resimulating with dc convergence controls

 convergence problems in dc sweep curves at  0.16253    
  resimulating with dc convergence controls

 convergence problems in dc sweep curves at  0.17563    
  resimulating with dc convergence controls

 convergence problems in dc sweep curves at  0.17593    
  resimulating with dc convergence controls

 convergence problems in dc sweep curves at  0.20963    
  resimulating with dc convergence controls

 convergence problems in dc sweep curves at  0.21043    
  resimulating with dc convergence controls

 convergence problems in dc sweep curves at  0.21663    
  resimulating with dc convergence controls

 convergence problems in dc sweep curves at  0.21903    
  resimulating with dc convergence controls

 convergence problems in dc sweep curves at  0.22073    
  resimulating with dc convergence controls

 convergence problems in dc sweep curves at  0.22433    
  resimulating with dc convergence controls

 convergence problems in dc sweep curves at  0.23273    
  resimulating with dc convergence controls

 convergence problems in dc sweep curves at  0.23853    
  resimulating with dc convergence controls

 convergence problems in dc sweep curves at  0.27723    
  resimulating with dc convergence controls

 convergence problems in dc sweep curves at  0.27863    
  resimulating with dc convergence controls

 convergence problems in dc sweep curves at  0.31123    
  resimulating with dc convergence controls

 convergence problems in dc sweep curves at  0.32473    
  resimulating with dc convergence controls

 convergence problems in dc sweep curves at  0.36993    
  resimulating with dc convergence controls

 convergence problems in dc sweep curves at  0.37123    
  resimulating with dc convergence controls

 convergence problems in dc sweep curves at  0.39143    
  resimulating with dc convergence controls

 convergence problems in dc sweep curves at  0.39223    
  resimulating with dc convergence controls

 convergence problems in dc sweep curves at  0.43133    
  resimulating with dc convergence controls

 convergence problems in dc sweep curves at  0.44483    
  resimulating with dc convergence controls

 convergence problems in dc sweep curves at  0.46613    
  resimulating with dc convergence controls

 convergence problems in dc sweep curves at  0.46693    
  resimulating with dc convergence controls

 convergence problems in dc sweep curves at  0.47793    
  resimulating with dc convergence controls

 convergence problems in dc sweep curves at  0.48513    
  resimulating with dc convergence controls

 convergence problems in dc sweep curves at  0.49063    
  resimulating with dc convergence controls

 convergence problems in dc sweep curves at  0.49433    
  resimulating with dc convergence controls

 ******
 .title ex1_1

 ****** dc transfer curves tnom=  25.000 temp=  25.000 ******
x

 volt         voltage    voltage   
             q          qb         
 -494.97475m -700.0000m    0.      
 -494.87475m -699.8586m    0.      
 -494.77475m -699.7172m    0.      
 -494.67475m -699.5757m    0.      
 -494.57475m -699.4343m    0.      
 -494.47475m -699.2929m    0.      
 -494.37475m -699.1515m    0.      
 -494.27475m -699.0101m    0.      
 -494.17475m -698.8686m    0.      
 -494.07475m -698.7272m    0.      
 -493.97475m -698.5858m    0.      
 -493.87475m -698.4444m    0.      
 -493.77475m -698.3029m    0.      
 -493.67475m -790.9525m  -92.7909m 
 -493.57475m -790.8110m  -92.7909m 
 -493.47475m -790.6696m  -92.7909m 
 -493.37475m -790.5282m  -92.7909m 
 -493.27475m -790.3868m  -92.7909m 
 -493.17475m   -1.0860  -388.5781m 
 -493.07475m -597.2097m  100.1033m 
 -492.97475m -597.0683m  100.1033m 
 -492.87475m -596.9268m  100.1033m 
 -492.77475m -596.7854m  100.1033m 
 -492.67475m -485.6217m  211.1256m 
 -492.57475m -351.4603m  345.1456m 
 -492.47475m -351.3189m  345.1456m 
 -492.37475m -295.6663m  400.6567m 
 -492.27475m -295.5249m  400.6567m 
 -492.17475m -248.0017m  448.0385m 
 -492.07475m -208.6080m  487.2908m 
 -491.97475m -136.6966m  559.0608m 
 -491.87475m -695.6159m    0.      
 -491.77475m -695.4745m    0.      
 -491.67475m -496.2820m  199.0511m 
 -491.57475m -496.1405m  199.0511m 
 -491.47475m -495.9991m  199.0511m 
 -491.37475m -495.8577m  199.0511m 
 -491.27475m -495.7163m  199.0511m 
 -491.17475m -289.7891m  404.8369m 
 -491.07475m -289.6477m  404.8369m 
 -490.97475m -289.5062m  404.8369m 
 -490.87475m -289.3648m  404.8369m 
 -490.77475m -289.2234m  404.8369m 
 -490.67475m -458.9828m  234.9361m 
 -490.57475m -426.3195m  267.4580m 
 -490.47475m -426.1780m  267.4580m 
 -490.37475m -426.0366m  267.4580m 
 -490.27475m -425.8952m  267.4580m 
 -490.17475m -448.7472m  244.4645m 
 -490.07475m -448.6058m  244.4645m 
 -489.97475m -448.4644m  244.4645m 
 -489.87475m -448.3230m  244.4645m 
 -489.77475m -448.1816m  244.4645m 
 -489.67475m -568.5866m  123.9180m 
 -489.57475m -568.4452m  123.9180m 
 -489.47475m -568.3038m  123.9180m 
 -489.37475m -568.1624m  123.9180m 
 -489.27475m -568.0210m  123.9180m 
 -489.17475m -567.8795m  123.9180m 
 -489.07475m -567.7381m  123.9180m 
 -488.97475m -567.5967m  123.9180m 
 -488.87475m -567.4553m  123.9180m 
 -488.77475m -722.3548m  -31.1229m 
 -488.67475m -500.1687m  190.9217m 
 -488.57475m -444.5162m  246.4329m 
 -488.47475m -444.3747m  246.4329m 
 -488.37475m -444.2333m  246.4329m 
 -488.27475m -444.0919m  246.4329m 
 -488.17475m -422.9295m  267.4538m 
 -488.07475m -422.7881m  267.4538m 
 -487.97475m -422.6467m  267.4538m 
 -487.87475m -422.5053m  267.4538m 
 -487.77475m -422.3639m  267.4538m 
 -487.67475m -495.9650m  193.7113m 
 -487.57475m -503.9530m  185.5819m 
 -487.47475m -318.2213m  371.1721m 
 -487.37475m -318.0799m  371.1721m 
 -487.27475m -317.9384m  371.1721m 
