 ****** HSPICE -- Q-2020.03-SP2-2 linux64 (Nov  1 2020) ******                  
  Copyright (c) 1986 - 2025 by Synopsys, Inc. All Rights Reserved.              
  This software and the associated documentation are proprietary
  to Synopsys, Inc. This software may only be used in accordance
  with the terms and conditions of a written license agreement with
  Synopsys, Inc. All other use, reproduction, or distribution of
  this software is strictly prohibited.
  Input File: ex1_1.sp                                                          
  Command line options: /RAID2/cad/synopsys/hspice/2020.03-sp2-2/hspice/linux64/hspice -i ex1_1.sp -o ex1_1.lis
  Start time: Tue Mar 18 21:15:39 2025
 lic:  
 lic: FLEXlm: SDK_12.6 
 lic: USER:   es25MCS042           HOSTNAME: ee28 
 lic: HOSTID: "d85ed3efc19a"       PID:      218416 
 lic: Using FLEXlm license file: 
 lic: 26585@lshc 
 lic: Checkout 1 hspice 
 lic: License/Maintenance for hspice will expire on 14-may-2025/2024.09 
 lic: 307(in_use)/1100(total) FLOATING license(s) on SERVER 26585@lshc 
 lic:   
  
      
             
 Warning:'Floating bulk' occurs 1 times
 Summary of floating bulk:
 -----------------------
 |Node      |Device    |
 |----------+----------|
 |x         |mn_ax1    |
 -----------------------
              
 *****************************************************************
 ******  option summary
 ******
 runlvl  = 3         bypass  = 2.0000    
 convergence problems in dc sweep curves at  0.17459    
  resimulating with dc convergence controls

 convergence problem in dc sweep curve at 0.17459    
 pseudo tran is tried

  *** pseudo tran succeeded *** 
 ******
 .title ex1_1

 ****** dc transfer curves tnom=  25.000 temp=  25.000 ******
x

 volt         voltage    voltage   
             q          qb         
 -707.10678m  699.9933m    4.9491u 
 -707.00678m  699.9933m    4.9438u 
 -706.90678m  699.9933m    4.9386u 
 -706.80678m  699.9933m    4.9333u 
 -706.70678m  699.9933m    4.9281u 
 -706.60678m  699.9933m    4.9229u 
 -706.50678m  699.9934m    4.9176u 
 -706.40678m  699.9934m    4.9124u 
 -706.30678m  699.9934m    4.9072u 
 -706.20678m  699.9934m    4.9020u 
 -706.10678m  699.9934m    4.8968u 
 -706.00678m  699.9934m    4.8916u 
 -705.90678m  699.9934m    4.8864u 
 -705.80678m  699.9934m    4.8813u 
 -705.70678m  699.9934m    4.8761u 
 -705.60678m  699.9934m    4.8710u 
 -705.50678m  699.9934m    4.8658u 
 -705.40678m  699.9934m    4.8607u 
 -705.30678m  699.9934m    4.8556u 
 -705.20678m  699.9934m    4.8504u 
 -705.10678m  699.9934m    4.8453u 
 -705.00678m  699.9934m    4.8402u 
 -704.90678m  699.9934m    4.8351u 
 -704.80678m  699.9934m    4.8300u 
 -704.70678m  699.9935m    4.8249u 
 -704.60678m  699.9935m    4.8199u 
 -704.50678m  699.9935m    4.8148u 
 -704.40678m  699.9935m    4.8098u 
 -704.30678m  699.9935m    4.8047u 
 -704.20678m  699.9935m    4.7997u 
 -704.10678m  699.9935m    4.7946u 
 -704.00678m  699.9935m    4.7896u 
 -703.90678m  699.9935m    4.7846u 
 -703.80678m  699.9935m    4.7796u 
 -703.70678m  699.9935m    4.7746u 
 -703.60678m  699.9935m    4.7696u 
 -703.50678m  699.9935m    4.7646u 
 -703.40678m  699.9935m    4.7596u 
 -703.30678m  699.9935m    4.7546u 
 -703.20678m  699.9935m    4.7497u 
 -703.10678m  699.9935m    4.7447u 
 -703.00678m  699.9935m    4.7398u 
 -702.90678m  699.9936m    4.7348u 
 -702.80678m  699.9936m    4.7299u 
 -702.70678m  699.9936m    4.7250u 
 -702.60678m  699.9936m    4.7201u 
 -702.50678m  699.9936m    4.7151u 
 -702.40678m  699.9936m    4.7102u 
 -702.30678m  699.9936m    4.7054u 
 -702.20678m  699.9936m    4.7005u 
 -702.10678m  699.9936m    4.6956u 
 -702.00678m  699.9936m    4.6907u 
 -701.90678m  699.9936m    4.6858u 
 -701.80678m  699.9936m    4.6810u 
 -701.70678m  699.9936m    4.6761u 
 -701.60678m  699.9936m    4.6713u 
 -701.50678m  699.9936m    4.6665u 
 -701.40678m  699.9936m    4.6616u 
 -701.30678m  699.9936m    4.6568u 
 -701.20678m  699.9936m    4.6520u 
 -701.10678m  699.9936m    4.6472u 
 -701.00678m  699.9937m    4.6424u 
 -700.90678m  699.9937m    4.6376u 
 -700.80678m  699.9937m    4.6328u 
 -700.70678m  699.9937m    4.6280u 
 -700.60678m  699.9937m    4.6233u 
 -700.50678m  699.9937m    4.6185u 
 -700.40678m  699.9937m    4.6138u 
 -700.30678m  699.9937m    4.6090u 
 -700.20678m  699.9937m    4.6043u 
 -700.10678m  699.9937m    4.5995u 
 -700.00678m  699.9937m    4.5948u 
 -699.90678m  699.9937m    4.5901u 
 -699.80678m  699.9937m    4.5854u 
 -699.70678m  699.9937m    4.5807u 
 -699.60678m  699.9937m    4.5760u 
 -699.50678m  699.9937m    4.5713u 
 -699.40678m  699.9937m    4.5666u 
 -699.30678m  699.9937m    4.5619u 
 -699.20678m  699.9937m    4.5573u 
 -699.10678m  699.9938m    4.5526u 
 -699.00678m  699.9938m    4.5480u 
 -698.90678m  699.9938m    4.5433u 
 -698.80678m  699.9938m    4.5387u 
 -698.70678m  699.9938m    4.5341u 
 -698.60678m  699.9938m    4.5294u 
 -698.50678m  699.9938m    4.5248u 
 -698.40678m  699.9938m    4.5202u 
 -698.30678m  699.9938m    4.5156u 
 -698.20678m  699.9938m    4.5110u 
 -698.10678m  699.9938m    4.5064u 
 -698.00678m  699.9938m    4.5018u 
 -697.90678m  699.9938m    4.4972u 
 -697.80678m  699.9938m    4.4927u 
 -697.70678m  699.9938m    4.4881u 
 -697.60678m  699.9938m    4.4836u 
 -697.50678m  699.9938m    4.4790u 
 -697.40678m  699.9938m    4.4745u 
 -697.30678m  699.9938m    4.4699u 
 -697.20678m  699.9938m    4.4654u 
 -697.10678m  699.9939m    4.4609u 
 -697.00678m  699.9939m    4.4564u 
 -696.90678m  699.9939m    4.4519u 
 -696.80678m  699.9939m    4.4474u 
 -696.70678m  699.9939m    4.4429u 
 -696.60678m  699.9939m    4.4384u 
 -696.50678m  699.9939m    4.4339u 
 -696.40678m  699.9939m    4.4294u 
 -696.30678m  699.9939m    4.4250u 
 -696.20678m  699.9939m    4.4205u 
 -696.10678m  699.9939m    4.4161u 
 -696.00678m  699.9939m    4.4116u 
 -695.90678m  699.9939m    4.4072u 
 -695.80678m  699.9939m    4.4027u 
 -695.70678m  699.9939m    4.3983u 
 -695.60678m  699.9939m    4.3939u 
 -695.50678m  699.9939m    4.3895u 
 -695.40678m  699.9939m    4.3851u 
 -695.30678m  699.9939m    4.3807u 
 -695.20678m  699.9939m    4.3763u 
 -695.10678m  699.9940m    4.3719u 
 -695.00678m  699.9940m    4.3675u 
 -694.90678m  699.9940m    4.3631u 
 -694.80678m  699.9940m    4.3588u 
 -694.70678m  699.9940m    4.3544u 
 -694.60678m  699.9940m    4.3501u 
 -694.50678m  699.9940m    4.3457u 
 -694.40678m  699.9940m    4.3414u 
 -694.30678m  699.9940m    4.3370u 
 -694.20678m  699.9940m    4.3327u 
 -694.10678m  699.9940m    4.3284u 
 -694.00678m  699.9940m    4.3241u 
 -693.90678m  699.9940m    4.3198u 
 -693.80678m  699.9940m    4.3155u 
 -693.70678m  699.9940m    4.3112u 
 -693.60678m  699.9940m    4.3069u 
 -693.50678m  699.9940m    4.3026u 
 -693.40678m  699.9940m    4.2983u 
 -693.30678m  699.9940m    4.2940u 
 -693.20678m  699.9940m    4.2898u 
 -693.10678m  699.9940m    4.2855u 
 -693.00678m  699.9941m    4.2813u 
 -692.90678m  699.9941m    4.2770u 
 -692.80678m  699.9941m    4.2728u 
 -692.70678m  699.9941m    4.2686u 
 -692.60678m  699.9941m    4.2643u 
 -692.50678m  699.9941m    4.2601u 
 -692.40678m  699.9941m    4.2559u 
 -692.30678m  699.9941m    4.2517u 
 -692.20678m  699.9941m    4.2475u 
 -692.10678m  699.9941m    4.2433u 
 -692.00678m  699.9941m    4.2391u 
 -691.90678m  699.9941m    4.2349u 
 -691.80678m  699.9941m    4.2307u 
 -691.70678m  699.9941m    4.2266u 
 -691.60678m  699.9941m    4.2224u 
 -691.50678m  699.9941m    4.2183u 
 -691.40678m  699.9941m    4.2141u 
 -691.30678m  699.9941m    4.2100u 
 -691.20678m  699.9941m    4.2058u 
 -691.10678m  699.9941m    4.2017u 
 -691.00678m  699.9941m    4.1976u 
 -690.90678m  699.9942m    4.1934u 
 -690.80678m  699.9942m    4.1893u 
 -690.70678m  699.9942m    4.1852u 
 -690.60678m  699.9942m    4.1811u 
 -690.50678m  699.9942m    4.1770u 
 -690.40678m  699.9942m    4.1729u 
 -690.30678m  699.9942m    4.1688u 
 -690.20678m  699.9942m    4.1648u 
 -690.10678m  699.9942m    4.1607u 
 -690.00678m  699.9942m    4.1566u 
 -689.90678m  699.9942m    4.1526u 
 -689.80678m  699.9942m    4.1485u 
 -689.70678m  699.9942m    4.1445u 
 -689.60678m  699.9942m    4.1404u 
 -689.50678m  699.9942m    4.1364u 
 -689.40678m  699.9942m    4.1323u 
 -689.30678m  699.9942m    4.1283u 
 -689.20678m  699.9942m    4.1243u 
 -689.10678m  699.9942m    4.1203u 
 -689.00678m  699.9942m    4.1163u 
 -688.90678m  699.9942m    4.1123u 
 -688.80678m  699.9942m    4.1083u 
 -688.70678m  699.9943m    4.1043u 
 -688.60678m  699.9943m    4.1003u 
 -688.50678m  699.9943m    4.0963u 
 -688.40678m  699.9943m    4.0924u 
 -688.30678m  699.9943m    4.0884u 
 -688.20678m  699.9943m    4.0844u 
 -688.10678m  699.9943m    4.0805u 
 -688.00678m  699.9943m    4.0765u 
 -687.90678m  699.9943m    4.0726u 
 -687.80678m  699.9943m    4.0686u 
 -687.70678m  699.9943m    4.0647u 
 -687.60678m  699.9943m    4.0608u 
 -687.50678m  699.9943m    4.0569u 
 -687.40678m  699.9943m    4.0529u 
 -687.30678m  699.9943m    4.0490u 
 -687.20678m  699.9943m    4.0451u 
 -687.10678m  699.9943m    4.0412u 
 -687.00678m  699.9943m    4.0373u 
 -686.90678m  699.9943m    4.0335u 
 -686.80678m  699.9943m    4.0296u 
 -686.70678m  699.9943m    4.0257u 
 -686.60678m  699.9943m    4.0218u 
 -686.50678m  699.9944m    4.0180u 
 -686.40678m  699.9944m    4.0141u 
 -686.30678m  699.9944m    4.0103u 
 -686.20678m  699.9944m    4.0064u 
 -686.10678m  699.9944m    4.0026u 
 -686.00678m  699.9944m    3.9987u 
 -685.90678m  699.9944m    3.9949u 
 -685.80678m  699.9944m    3.9911u 
 -685.70678m  699.9944m    3.9873u 
 -685.60678m  699.9944m    3.9834u 
 -685.50678m  699.9944m    3.9796u 
 -685.40678m  699.9944m    3.9758u 
 -685.30678m  699.9944m    3.9720u 
 -685.20678m  699.9944m    3.9682u 
 -685.10678m  699.9944m    3.9645u 
 -685.00678m  699.9944m    3.9607u 
 -684.90678m  699.9944m    3.9569u 
 -684.80678m  699.9944m    3.9531u 
 -684.70678m  699.9944m    3.9494u 
 -684.60678m  699.9944m    3.9456u 
 -684.50678m  699.9944m    3.9418u 
 -684.40678m  699.9944m    3.9381u 
 -684.30678m  699.9944m    3.9344u 
 -684.20678m  699.9945m    3.9306u 
 -684.10678m  699.9945m    3.9269u 
 -684.00678m  699.9945m    3.9232u 
 -683.90678m  699.9945m    3.9194u 
 -683.80678m  699.9945m    3.9157u 
 -683.70678m  699.9945m    3.9120u 
 -683.60678m  699.9945m    3.9083u 
 -683.50678m  699.9945m    3.9046u 
 -683.40678m  699.9945m    3.9009u 
 -683.30678m  699.9945m    3.8972u 
 -683.20678m  699.9945m    3.8935u 
 -683.10678m  699.9945m    3.8898u 
 -683.00678m  699.9945m    3.8862u 
 -682.90678m  699.9945m    3.8825u 
 -682.80678m  699.9945m    3.8788u 
 -682.70678m  699.9945m    3.8752u 
 -682.60678m  699.9945m    3.8715u 
 -682.50678m  699.9945m    3.8679u 
 -682.40678m  699.9945m    3.8642u 
 -682.30678m  699.9945m    3.8606u 
 -682.20678m  699.9945m    3.8570u 
 -682.10678m  699.9945m    3.8533u 
 -682.00678m  699.9945m    3.8497u 
 -681.90678m  699.9945m    3.8461u 
 -681.80678m  699.9946m    3.8425u 
 -681.70678m  699.9946m    3.8389u 
 -681.60678m  699.9946m    3.8353u 
 -681.50678m  699.9946m    3.8317u 
 -681.40678m  699.9946m    3.8281u 
 -681.30678m  699.9946m    3.8245u 
 -681.20678m  699.9946m    3.8209u 
 -681.10678m  699.9946m    3.8173u 
 -681.00678m  699.9946m    3.8138u 
 -680.90678m  699.9946m    3.8102u 
 -680.80678m  699.9946m    3.8066u 
 -680.70678m  699.9946m    3.8031u 
 -680.60678m  699.9946m    3.7995u 
 -680.50678m  699.9946m    3.7960u 
 -680.40678m  699.9946m    3.7924u 
 -680.30678m  699.9946m    3.7889u 
 -680.20678m  699.9946m    3.7854u 
 -680.10678m  699.9946m    3.7819u 
 -680.00678m  699.9946m    3.7783u 
 -679.90678m  699.9946m    3.7748u 
 -679.80678m  699.9946m    3.7713u 
 -679.70678m  699.9946m    3.7678u 
 -679.60678m  699.9946m    3.7643u 
 -679.50678m  699.9946m    3.7608u 
 -679.40678m  699.9947m    3.7573u 
 -679.30678m  699.9947m    3.7538u 
 -679.20678m  699.9947m    3.7503u 
 -679.10678m  699.9947m    3.7469u 
 -679.00678m  699.9947m    3.7434u 
 -678.90678m  699.9947m    3.7399u 
 -678.80678m  699.9947m    3.7365u 
 -678.70678m  699.9947m    3.7330u 
 -678.60678m  699.9947m    3.7295u 
 -678.50678m  699.9947m    3.7261u 
 -678.40678m  699.9947m    3.7227u 
 -678.30678m  699.9947m    3.7192u 
 -678.20678m  699.9947m    3.7158u 
 -678.10678m  699.9947m    3.7124u 
 -678.00678m  699.9947m    3.7089u 
 -677.90678m  699.9947m    3.7055u 
 -677.80678m  699.9947m    3.7021u 
 -677.70678m  699.9947m    3.6987u 
 -677.60678m  699.9947m    3.6953u 
 -677.50678m  699.9947m    3.6919u 
 -677.40678m  699.9947m    3.6885u 
 -677.30678m  699.9947m    3.6851u 
 -677.20678m  699.9947m    3.6817u 
 -677.10678m  699.9947m    3.6783u 
 -677.00678m  699.9947m    3.6750u 
 -676.90678m  699.9948m    3.6716u 
 -676.80678m  699.9948m    3.6682u 
 -676.70678m  699.9948m    3.6649u 
 -676.60678m  699.9948m    3.6615u 
 -676.50678m  699.9948m    3.6581u 
 -676.40678m  699.9948m    3.6548u 
 -676.30678m  699.9948m    3.6515u 
 -676.20678m  699.9948m    3.6481u 
 -676.10678m  699.9948m    3.6448u 
 -676.00678m  699.9948m    3.6415u 
 -675.90678m  699.9948m    3.6381u 
 -675.80678m  699.9948m    3.6348u 
 -675.70678m  699.9948m    3.6315u 
 -675.60678m  699.9948m    3.6282u 
 -675.50678m  699.9948m    3.6249u 
 -675.40678m  699.9948m    3.6216u 
 -675.30678m  699.9948m    3.6183u 
 -675.20678m  699.9948m    3.6150u 
 -675.10678m  699.9948m    3.6117u 
 -675.00678m  699.9948m    3.6084u 
 -674.90678m  699.9948m    3.6051u 
 -674.80678m  699.9948m    3.6019u 
 -674.70678m  699.9948m    3.5986u 
 -674.60678m  699.9948m    3.5953u 
 -674.50678m  699.9948m    3.5921u 
 -674.40678m  699.9948m    3.5888u 
 -674.30678m  699.9949m    3.5855u 
 -674.20678m  699.9949m    3.5823u 
 -674.10678m  699.9949m    3.5791u 
 -674.00678m  699.9949m    3.5758u 
 -673.90678m  699.9949m    3.5726u 
 -673.80678m  699.9949m    3.5694u 
 -673.70678m  699.9949m    3.5661u 
 -673.60678m  699.9949m    3.5629u 
 -673.50678m  699.9949m    3.5597u 
 -673.40678m  699.9949m    3.5565u 
 -673.30678m  699.9949m    3.5533u 
 -673.20678m  699.9949m    3.5501u 
 -673.10678m  699.9949m    3.5469u 
 -673.00678m  699.9949m    3.5437u 
 -672.90678m  699.9949m    3.5405u 
 -672.80678m  699.9949m    3.5373u 
 -672.70678m  699.9949m    3.5341u 
 -672.60678m  699.9949m    3.5309u 
 -672.50678m  699.9949m    3.5278u 
 -672.40678m  699.9949m    3.5246u 
 -672.30678m  699.9949m    3.5214u 
 -672.20678m  699.9949m    3.5183u 
 -672.10678m  699.9949m    3.5151u 
 -672.00678m  699.9949m    3.5120u 
 -671.90678m  699.9949m    3.5088u 
 -671.80678m  699.9949m    3.5057u 
 -671.70678m  699.9950m    3.5025u 
 -671.60678m  699.9950m    3.4994u 
 -671.50678m  699.9950m    3.4963u 
 -671.40678m  699.9950m    3.4931u 
 -671.30678m  699.9950m    3.4900u 
 -671.20678m  699.9950m    3.4869u 
 -671.10678m  699.9950m    3.4838u 
 -671.00678m  699.9950m    3.4807u 
 -670.90678m  699.9950m    3.4776u 
 -670.80678m  699.9950m    3.4745u 
 -670.70678m  699.9950m    3.4714u 
 -670.60678m  699.9950m    3.4683u 
 -670.50678m  699.9950m    3.4652u 
 -670.40678m  699.9950m    3.4621u 
 -670.30678m  699.9950m    3.4590u 
 -670.20678m  699.9950m    3.4560u 
 -670.10678m  699.9950m    3.4529u 
 -670.00678m  699.9950m    3.4498u 
 -669.90678m  699.9950m    3.4468u 
 -669.80678m  699.9950m    3.4437u 
 -669.70678m  699.9950m    3.4407u 
 -669.60678m  699.9950m    3.4376u 
 -669.50678m  699.9950m    3.4346u 
 -669.40678m  699.9950m    3.4315u 
 -669.30678m  699.9950m    3.4285u 
 -669.20678m  699.9950m    3.4254u 
 -669.10678m  699.9950m    3.4224u 
 -669.00678m  699.9951m    3.4194u 
 -668.90678m  699.9951m    3.4164u 
 -668.80678m  699.9951m    3.4134u 
 -668.70678m  699.9951m    3.4103u 
 -668.60678m  699.9951m    3.4073u 
 -668.50678m  699.9951m    3.4043u 
 -668.40678m  699.9951m    3.4013u 
 -668.30678m  699.9951m    3.3983u 
 -668.20678m  699.9951m    3.3953u 
 -668.10678m  699.9951m    3.3923u 
 -668.00678m  699.9951m    3.3894u 
 -667.90678m  699.9951m    3.3864u 
 -667.80678m  699.9951m    3.3834u 
 -667.70678m  699.9951m    3.3804u 
 -667.60678m  699.9951m    3.3775u 
 -667.50678m  699.9951m    3.3745u 
 -667.40678m  699.9951m    3.3715u 
 -667.30678m  699.9951m    3.3686u 
 -667.20678m  699.9951m    3.3656u 
 -667.10678m  699.9951m    3.3627u 
 -667.00678m  699.9951m    3.3597u 
 -666.90678m  699.9951m    3.3568u 
 -666.80678m  699.9951m    3.3538u 
 -666.70678m  699.9951m    3.3509u 
 -666.60678m  699.9951m    3.3480u 
 -666.50678m  699.9951m    3.3451u 
 -666.40678m  699.9951m    3.3421u 
 -666.30678m  699.9951m    3.3392u 
 -666.20678m  699.9951m    3.3363u 
 -666.10678m  699.9952m    3.3334u 
 -666.00678m  699.9952m    3.3305u 
 -665.90678m  699.9952m    3.3276u 
 -665.80678m  699.9952m    3.3247u 
 -665.70678m  699.9952m    3.3218u 
 -665.60678m  699.9952m    3.3189u 
 -665.50678m  699.9952m    3.3160u 
 -665.40678m  699.9952m    3.3131u 
 -665.30678m  699.9952m    3.3103u 
 -665.20678m  699.9952m    3.3074u 
 -665.10678m  699.9952m    3.3045u 
 -665.00678m  699.9952m    3.3016u 
 -664.90678m  699.9952m    3.2988u 
 -664.80678m  699.9952m    3.2959u 
 -664.70678m  699.9952m    3.2931u 
 -664.60678m  699.9952m    3.2902u 
 -664.50678m  699.9952m    3.2874u 
 -664.40678m  699.9952m    3.2845u 
 -664.30678m  699.9952m    3.2817u 
 -664.20678m  699.9952m    3.2788u 
 -664.10678m  699.9952m    3.2760u 
 -664.00678m  699.9952m    3.2732u 
 -663.90678m  699.9952m    3.2703u 
 -663.80678m  699.9952m    3.2675u 
 -663.70678m  699.9952m    3.2647u 
 -663.60678m  699.9952m    3.2619u 
 -663.50678m  699.9952m    3.2591u 
 -663.40678m  699.9952m    3.2563u 
 -663.30678m  699.9952m    3.2535u 
 -663.20678m  699.9953m    3.2507u 
 -663.10678m  699.9953m    3.2479u 
 -663.00678m  699.9953m    3.2451u 
 -662.90678m  699.9953m    3.2423u 
 -662.80678m  699.9953m    3.2395u 
 -662.70678m  699.9953m    3.2367u 
 -662.60678m  699.9953m    3.2339u 
 -662.50678m  699.9953m    3.2312u 
 -662.40678m  699.9953m    3.2284u 
 -662.30678m  699.9953m    3.2256u 
 -662.20678m  699.9953m    3.2229u 
 -662.10678m  699.9953m    3.2201u 
 -662.00678m  699.9953m    3.2173u 
 -661.90678m  699.9953m    3.2146u 
 -661.80678m  699.9953m    3.2118u 
 -661.70678m  699.9953m    3.2091u 
 -661.60678m  699.9953m    3.2064u 
 -661.50678m  699.9953m    3.2036u 
 -661.40678m  699.9953m    3.2009u 
 -661.30678m  699.9953m    3.1982u 
 -661.20678m  699.9953m    3.1954u 
 -661.10678m  699.9953m    3.1927u 
 -661.00678m  699.9953m    3.1900u 
 -660.90678m  699.9953m    3.1873u 
 -660.80678m  699.9953m    3.1845u 
 -660.70678m  699.9953m    3.1818u 
 -660.60678m  699.9953m    3.1791u 
 -660.50678m  699.9953m    3.1764u 
 -660.40678m  699.9953m    3.1737u 
 -660.30678m  699.9954m    3.1710u 
 -660.20678m  699.9954m    3.1683u 
 -660.10678m  699.9954m    3.1657u 
 -660.00678m  699.9954m    3.1630u 
 -659.90678m  699.9954m    3.1603u 
 -659.80678m  699.9954m    3.1576u 
 -659.70678m  699.9954m    3.1549u 
 -659.60678m  699.9954m    3.1523u 
 -659.50678m  699.9954m    3.1496u 
 -659.40678m  699.9954m    3.1469u 
 -659.30678m  699.9954m    3.1443u 
 -659.20678m  699.9954m    3.1416u 
 -659.10678m  699.9954m    3.1390u 
 -659.00678m  699.9954m    3.1363u 
 -658.90678m  699.9954m    3.1337u 
 -658.80678m  699.9954m    3.1310u 
 -658.70678m  699.9954m    3.1284u 
 -658.60678m  699.9954m    3.1257u 
 -658.50678m  699.9954m    3.1231u 
 -658.40678m  699.9954m    3.1205u 
 -658.30678m  699.9954m    3.1178u 
 -658.20678m  699.9954m    3.1152u 
 -658.10678m  699.9954m    3.1126u 
 -658.00678m  699.9954m    3.1100u 
 -657.90678m  699.9954m    3.1074u 
 -657.80678m  699.9954m    3.1048u 
 -657.70678m  699.9954m    3.1022u 
 -657.60678m  699.9954m    3.0996u 
 -657.50678m  699.9954m    3.0970u 
 -657.40678m  699.9954m    3.0944u 
 -657.30678m  699.9954m    3.0918u 
 -657.20678m  699.9955m    3.0892u 
 -657.10678m  699.9955m    3.0866u 
 -657.00678m  699.9955m    3.0840u 
 -656.90678m  699.9955m    3.0814u 
 -656.80678m  699.9955m    3.0788u 
 -656.70678m  699.9955m    3.0763u 
