 ****** HSPICE -- Q-2020.03-SP2-2 linux64 (Nov  1 2020) ******                  
  Copyright (c) 1986 - 2025 by Synopsys, Inc. All Rights Reserved.              
  This software and the associated documentation are proprietary
  to Synopsys, Inc. This software may only be used in accordance
  with the terms and conditions of a written license agreement with
  Synopsys, Inc. All other use, reproduction, or distribution of
  this software is strictly prohibited.
  Input File: ex1_1.sp                                                          
  Command line options: /RAID2/cad/synopsys/hspice/2020.03-sp2-2/hspice/linux64/hspice -i ex1_1.sp -o ex1_1.lis
  Start time: Tue Mar 18 23:56:43 2025
 lic:  
 lic: FLEXlm: SDK_12.6 
 lic: USER:   es25MCS042           HOSTNAME: ee28 
 lic: HOSTID: "d85ed3efc19a"       PID:      85564 
 lic: Using FLEXlm license file: 
 lic: 26585@lshc 
 lic: Checkout 1 hspice 
 lic: License/Maintenance for hspice will expire on 14-may-2025/2024.09 
 lic: 161(in_use)/1100(total) FLOATING license(s) on SERVER 26585@lshc 
 lic:   
  
      
 **info** set option symb=1 internally to help for convergence.
 *****************************************************************
 ******  option summary
 ******
 runlvl  = 3         bypass  = 2.0000    
 ******
 .title ex1_1

 ****** dc transfer curves tnom=  25.000 temp=  25.000 ******
x

 volt         voltage    voltage   
             q          qb         
    0.        699.9930m   50.5582f 
  100.00000u  699.9930m   50.5582f 
  200.00000u  699.9930m   50.5582f 
  300.00000u  699.9930m   50.5582f 
  400.00000u  699.9930m   50.5582f 
  500.00000u  699.9930m   50.5582f 
  600.00000u  699.9930m   50.5582f 
  700.00000u  699.9930m   50.5582f 
  800.00000u  699.9930m   50.5582f 
  900.00000u  699.9930m   50.5582f 
    1.00000m  699.9930m   50.5582f 
    1.10000m  699.9930m   50.5582f 
    1.20000m  699.9930m   50.5582f 
    1.30000m  699.9930m   50.5582f 
    1.40000m  699.9930m   50.5582f 
    1.50000m  699.9930m   50.5582f 
    1.60000m  699.9930m   50.5582f 
    1.70000m  699.9930m   50.5582f 
    1.80000m  699.9930m   50.5582f 
    1.90000m  699.9930m   50.5582f 
    2.00000m  699.9930m   50.5582f 
    2.10000m  699.9930m   50.5582f 
    2.20000m  699.9930m   50.5582f 
    2.30000m  699.9930m   50.5582f 
    2.40000m  699.9930m   50.5582f 
    2.50000m  699.9930m   50.5582f 
    2.60000m  699.9930m   50.5582f 
    2.70000m  699.9930m   50.5582f 
    2.80000m  699.9930m   50.5582f 
    2.90000m  699.9930m   50.5582f 
    3.00000m  699.9930m   50.5581f 
    3.10000m  699.9930m   50.5581f 
    3.20000m  699.9930m   50.5581f 
    3.30000m  699.9930m   50.5581f 
    3.40000m  699.9930m   50.5581f 
    3.50000m  699.9930m   50.5581f 
    3.60000m  699.9930m   50.5581f 
    3.70000m  699.9930m   50.5581f 
    3.80000m  699.9930m   50.5581f 
    3.90000m  699.9930m   50.5581f 
    4.00000m  699.9930m   50.5581f 
    4.10000m  699.9930m   50.5581f 
    4.20000m  699.9930m   50.5581f 
    4.30000m  699.9930m   50.5581f 
    4.40000m  699.9930m   50.5581f 
    4.50000m  699.9930m   50.5581f 
    4.60000m  699.9930m   50.5581f 
    4.70000m  699.9930m   50.5581f 
    4.80000m  699.9930m   50.5581f 
    4.90000m  699.9930m   50.5581f 
    5.00000m  699.9931m   50.5581f 
    5.10000m  699.9931m   50.5581f 
    5.20000m  699.9931m   50.5581f 
    5.30000m  699.9931m   50.5581f 
    5.40000m  699.9931m   50.5581f 
    5.50000m  699.9931m   50.5581f 
    5.60000m  699.9931m   50.5581f 
    5.70000m  699.9931m   50.5581f 
    5.80000m  699.9931m   50.5581f 
    5.90000m  699.9931m   50.5581f 
    6.00000m  699.9931m   50.5581f 
    6.10000m  699.9931m   50.5581f 
    6.20000m  699.9931m   50.5581f 
    6.30000m  699.9931m   50.5581f 
    6.40000m  699.9931m   50.5581f 
    6.50000m  699.9931m   50.5581f 
    6.60000m  699.9931m   50.5581f 
    6.70000m  699.9931m   50.5581f 
    6.80000m  699.9931m   50.5581f 
    6.90000m  699.9931m   50.5581f 
    7.00000m  699.9931m   50.5581f 
    7.10000m  699.9931m   50.5581f 
    7.20000m  699.9931m   50.5581f 
    7.30000m  699.9931m   50.5581f 
    7.40000m  699.9931m   50.5581f 
    7.50000m  699.9931m   50.5581f 
    7.60000m  699.9931m   50.5581f 
    7.70000m  699.9931m   50.5581f 
    7.80000m  699.9931m   50.5581f 
    7.90000m  699.9931m   50.5581f 
    8.00000m  699.9931m   50.5581f 
    8.10000m  699.9931m   50.5581f 
    8.20000m  699.9931m   50.5581f 
    8.30000m  699.9931m   50.5581f 
    8.40000m  699.9931m   50.5581f 
    8.50000m  699.9931m   50.5581f 
    8.60000m  699.9931m   50.5581f 
    8.70000m  699.9931m   50.5581f 
    8.80000m  699.9931m   50.5581f 
    8.90000m  699.9931m   50.5581f 
    9.00000m  699.9931m   50.5581f 
    9.10000m  699.9931m   50.5581f 
    9.20000m  699.9931m   50.5581f 
    9.30000m  699.9931m   50.5581f 
    9.40000m  699.9931m   50.5581f 
    9.50000m  699.9931m   50.5581f 
    9.60000m  699.9931m   50.5581f 
    9.70000m  699.9931m   50.5581f 
    9.80000m  699.9931m   50.5580f 
    9.90000m  699.9931m   50.5580f 
   10.00000m  699.9931m   50.5580f 
   10.10000m  699.9931m   50.5580f 
   10.20000m  699.9931m   50.5580f 
   10.30000m  699.9931m   50.5580f 
   10.40000m  699.9931m   50.5580f 
   10.50000m  699.9931m   50.5580f 
   10.60000m  699.9931m   50.5580f 
   10.70000m  699.9931m   50.5580f 
   10.80000m  699.9931m   50.5580f 
   10.90000m  699.9931m   50.5580f 
   11.00000m  699.9931m   50.5580f 
   11.10000m  699.9931m   50.5580f 
   11.20000m  699.9931m   50.5580f 
   11.30000m  699.9931m   50.5580f 
   11.40000m  699.9931m   50.5580f 
   11.50000m  699.9931m   50.5580f 
   11.60000m  699.9931m   50.5580f 
   11.70000m  699.9931m   50.5580f 
   11.80000m  699.9931m   50.5580f 
   11.90000m  699.9931m   50.5580f 
   12.00000m  699.9931m   50.5580f 
   12.10000m  699.9931m   50.5580f 
   12.20000m  699.9931m   50.5580f 
   12.30000m  699.9931m   50.5580f 
   12.40000m  699.9931m   50.5580f 
   12.50000m  699.9931m   50.5580f 
   12.60000m  699.9931m   50.5580f 
   12.70000m  699.9931m   50.5580f 
   12.80000m  699.9931m   50.5580f 
   12.90000m  699.9931m   50.5580f 
   13.00000m  699.9931m   50.5580f 
   13.10000m  699.9931m   50.5580f 
   13.20000m  699.9931m   50.5580f 
   13.30000m  699.9931m   50.5580f 
   13.40000m  699.9931m   50.5580f 
   13.50000m  699.9931m   50.5580f 
   13.60000m  699.9931m   50.5580f 
   13.70000m  699.9931m   50.5580f 
   13.80000m  699.9931m   50.5580f 
   13.90000m  699.9931m   50.5580f 
   14.00000m  699.9931m   50.5580f 
   14.10000m  699.9931m   50.5580f 
   14.20000m  699.9931m   50.5580f 
   14.30000m  699.9931m   50.5580f 
   14.40000m  699.9931m   50.5580f 
   14.50000m  699.9931m   50.5580f 
   14.60000m  699.9931m   50.5580f 
   14.70000m  699.9931m   50.5580f 
   14.80000m  699.9931m   50.5580f 
   14.90000m  699.9931m   50.5580f 
   15.00000m  699.9932m   50.5580f 
   15.10000m  699.9932m   50.5580f 
   15.20000m  699.9932m   50.5580f 
   15.30000m  699.9932m   50.5580f 
   15.40000m  699.9932m   50.5580f 
   15.50000m  699.9932m   50.5580f 
   15.60000m  699.9932m   50.5580f 
   15.70000m  699.9932m   50.5580f 
   15.80000m  699.9932m   50.5580f 
   15.90000m  699.9932m   50.5580f 
   16.00000m  699.9932m   50.5580f 
   16.10000m  699.9932m   50.5580f 
   16.20000m  699.9932m   50.5580f 
   16.30000m  699.9932m   50.5580f 
   16.40000m  699.9932m   50.5580f 
   16.50000m  699.9932m   50.5580f 
   16.60000m  699.9932m   50.5580f 
   16.70000m  699.9932m   50.5579f 
   16.80000m  699.9932m   50.5579f 
   16.90000m  699.9932m   50.5579f 
   17.00000m  699.9932m   50.5579f 
   17.10000m  699.9932m   50.5579f 
   17.20000m  699.9932m   50.5579f 
   17.30000m  699.9932m   50.5579f 
   17.40000m  699.9932m   50.5579f 
   17.50000m  699.9932m   50.5579f 
   17.60000m  699.9932m   50.5579f 
   17.70000m  699.9932m   50.5579f 
   17.80000m  699.9932m   50.5579f 
   17.90000m  699.9932m   50.5579f 
   18.00000m  699.9932m   50.5579f 
   18.10000m  699.9932m   50.5579f 
   18.20000m  699.9932m   50.5579f 
   18.30000m  699.9932m   50.5579f 
   18.40000m  699.9932m   50.5579f 
   18.50000m  699.9932m   50.5579f 
   18.60000m  699.9932m   50.5579f 
   18.70000m  699.9932m   50.5579f 
   18.80000m  699.9932m   50.5579f 
   18.90000m  699.9932m   50.5579f 
   19.00000m  699.9932m   50.5579f 
   19.10000m  699.9932m   50.5579f 
   19.20000m  699.9932m   50.5579f 
   19.30000m  699.9932m   50.5579f 
   19.40000m  699.9932m   50.5579f 
   19.50000m  699.9932m   50.5579f 
   19.60000m  699.9932m   50.5579f 
   19.70000m  699.9932m   50.5579f 
   19.80000m  699.9932m   50.5579f 
   19.90000m  699.9932m   50.5579f 
   20.00000m  699.9932m   50.5579f 
   20.10000m  699.9932m   50.5579f 
   20.20000m  699.9932m   50.5579f 
   20.30000m  699.9932m   50.5579f 
   20.40000m  699.9932m   50.5579f 
   20.50000m  699.9932m   50.5579f 
   20.60000m  699.9932m   50.5579f 
   20.70000m  699.9932m   50.5579f 
   20.80000m  699.9932m   50.5579f 
   20.90000m  699.9932m   50.5579f 
   21.00000m  699.9932m   50.5579f 
   21.10000m  699.9932m   50.5579f 
   21.20000m  699.9932m   50.5579f 
   21.30000m  699.9932m   50.5579f 
   21.40000m  699.9932m   50.5579f 
   21.50000m  699.9932m   50.5579f 
   21.60000m  699.9932m   50.5579f 
   21.70000m  699.9932m   50.5579f 
   21.80000m  699.9932m   50.5579f 
   21.90000m  699.9932m   50.5579f 
   22.00000m  699.9932m   50.5579f 
   22.10000m  699.9932m   50.5579f 
   22.20000m  699.9932m   50.5579f 
   22.30000m  699.9932m   50.5579f 
   22.40000m  699.9932m   50.5579f 
   22.50000m  699.9932m   50.5579f 
   22.60000m  699.9932m   50.5579f 
   22.70000m  699.9932m   50.5579f 
   22.80000m  699.9932m   50.5579f 
   22.90000m  699.9932m   50.5579f 
   23.00000m  699.9932m   50.5579f 
   23.10000m  699.9932m   50.5579f 
   23.20000m  699.9932m   50.5579f 
   23.30000m  699.9932m   50.5579f 
   23.40000m  699.9932m   50.5579f 
   23.50000m  699.9932m   50.5579f 
   23.60000m  699.9932m   50.5578f 
   23.70000m  699.9932m   50.5578f 
   23.80000m  699.9932m   50.5578f 
   23.90000m  699.9932m   50.5578f 
   24.00000m  699.9932m   50.5578f 
   24.10000m  699.9932m   50.5578f 
   24.20000m  699.9932m   50.5578f 
   24.30000m  699.9932m   50.5578f 
   24.40000m  699.9932m   50.5578f 
   24.50000m  699.9932m   50.5578f 
   24.60000m  699.9932m   50.5578f 
   24.70000m  699.9932m   50.5578f 
   24.80000m  699.9932m   50.5578f 
   24.90000m  699.9932m   50.5578f 
   25.00000m  699.9933m   50.5578f 
   25.10000m  699.9933m   50.5578f 
   25.20000m  699.9933m   50.5578f 
   25.30000m  699.9933m   50.5578f 
   25.40000m  699.9933m   50.5578f 
   25.50000m  699.9933m   50.5578f 
   25.60000m  699.9933m   50.5578f 
   25.70000m  699.9933m   50.5578f 
   25.80000m  699.9933m   50.5578f 
   25.90000m  699.9933m   50.5578f 
   26.00000m  699.9933m   50.5578f 
   26.10000m  699.9933m   50.5578f 
   26.20000m  699.9933m   50.5578f 
   26.30000m  699.9933m   50.5578f 
   26.40000m  699.9933m   50.5578f 
   26.50000m  699.9933m   50.5578f 
   26.60000m  699.9933m   50.5578f 
   26.70000m  699.9933m   50.5578f 
   26.80000m  699.9933m   50.5578f 
   26.90000m  699.9933m   50.5578f 
   27.00000m  699.9933m   50.5578f 
   27.10000m  699.9933m   50.5578f 
   27.20000m  699.9933m   50.5578f 
   27.30000m  699.9933m   50.5578f 
   27.40000m  699.9933m   50.5578f 
   27.50000m  699.9933m   50.5578f 
   27.60000m  699.9933m   50.5578f 
   27.70000m  699.9933m   50.5578f 
   27.80000m  699.9933m   50.5578f 
   27.90000m  699.9933m   50.5578f 
   28.00000m  699.9933m   50.5578f 
   28.10000m  699.9933m   50.5578f 
   28.20000m  699.9933m   50.5578f 
   28.30000m  699.9933m   50.5578f 
   28.40000m  699.9933m   50.5578f 
   28.50000m  699.9933m   50.5578f 
   28.60000m  699.9933m   50.5578f 
   28.70000m  699.9933m   50.5578f 
   28.80000m  699.9933m   50.5578f 
   28.90000m  699.9933m   50.5578f 
   29.00000m  699.9933m   50.5578f 
   29.10000m  699.9933m   50.5578f 
   29.20000m  699.9933m   50.5578f 
   29.30000m  699.9933m   50.5578f 
   29.40000m  699.9933m   50.5578f 
   29.50000m  699.9933m   50.5578f 
   29.60000m  699.9933m   50.5578f 
   29.70000m  699.9933m   50.5578f 
   29.80000m  699.9933m   50.5578f 
   29.90000m  699.9933m   50.5578f 
   30.00000m  699.9933m   50.5578f 
   30.10000m  699.9933m   50.5578f 
   30.20000m  699.9933m   50.5578f 
   30.30000m  699.9933m   50.5578f 
   30.40000m  699.9933m   50.5578f 
   30.50000m  699.9933m   50.5577f 
   30.60000m  699.9933m   50.5577f 
   30.70000m  699.9933m   50.5577f 
   30.80000m  699.9933m   50.5577f 
   30.90000m  699.9933m   50.5577f 
   31.00000m  699.9933m   50.5577f 
   31.10000m  699.9933m   50.5577f 
   31.20000m  699.9933m   50.5577f 
   31.30000m  699.9933m   50.5577f 
   31.40000m  699.9933m   50.5577f 
   31.50000m  699.9933m   50.5577f 
   31.60000m  699.9933m   50.5577f 
   31.70000m  699.9933m   50.5577f 
   31.80000m  699.9933m   50.5577f 
   31.90000m  699.9933m   50.5577f 
   32.00000m  699.9933m   50.5577f 
   32.10000m  699.9933m   50.5577f 
   32.20000m  699.9933m   50.5577f 
   32.30000m  699.9933m   50.5577f 
   32.40000m  699.9933m   50.5577f 
   32.50000m  699.9933m   50.5577f 
   32.60000m  699.9933m   50.5577f 
   32.70000m  699.9933m   50.5577f 
   32.80000m  699.9933m   50.5577f 
   32.90000m  699.9933m   50.5577f 
   33.00000m  699.9933m   50.5577f 
   33.10000m  699.9933m   50.5577f 
   33.20000m  699.9933m   50.5577f 
   33.30000m  699.9933m   50.5577f 
   33.40000m  699.9933m   50.5577f 
   33.50000m  699.9933m   50.5577f 
   33.60000m  699.9933m   50.5577f 
   33.70000m  699.9933m   50.5577f 
   33.80000m  699.9933m   50.5577f 
   33.90000m  699.9933m   50.5577f 
   34.00000m  699.9933m   50.5577f 
   34.10000m  699.9933m   50.5577f 
   34.20000m  699.9933m   50.5577f 
   34.30000m  699.9933m   50.5577f 
   34.40000m  699.9933m   50.5577f 
   34.50000m  699.9933m   50.5577f 
   34.60000m  699.9933m   50.5577f 
   34.70000m  699.9933m   50.5577f 
   34.80000m  699.9933m   50.5577f 
   34.90000m  699.9933m   50.5577f 
   35.00000m  699.9934m   50.5577f 
   35.10000m  699.9934m   50.5577f 
   35.20000m  699.9934m   50.5577f 
   35.30000m  699.9934m   50.5577f 
   35.40000m  699.9934m   50.5577f 
   35.50000m  699.9934m   50.5577f 
   35.60000m  699.9934m   50.5577f 
   35.70000m  699.9934m   50.5577f 
   35.80000m  699.9934m   50.5577f 
   35.90000m  699.9934m   50.5577f 
   36.00000m  699.9934m   50.5577f 
   36.10000m  699.9934m   50.5577f 
   36.20000m  699.9934m   50.5577f 
   36.30000m  699.9934m   50.5577f 
   36.40000m  699.9934m   50.5577f 
   36.50000m  699.9934m   50.5577f 
   36.60000m  699.9934m   50.5577f 
   36.70000m  699.9934m   50.5577f 
   36.80000m  699.9934m   50.5577f 
   36.90000m  699.9934m   50.5577f 
   37.00000m  699.9934m   50.5577f 
   37.10000m  699.9934m   50.5577f 
   37.20000m  699.9934m   50.5577f 
   37.30000m  699.9934m   50.5576f 
   37.40000m  699.9934m   50.5576f 
   37.50000m  699.9934m   50.5576f 
   37.60000m  699.9934m   50.5576f 
   37.70000m  699.9934m   50.5576f 
   37.80000m  699.9934m   50.5576f 
   37.90000m  699.9934m   50.5576f 
   38.00000m  699.9934m   50.5576f 
   38.10000m  699.9934m   50.5576f 
   38.20000m  699.9934m   50.5576f 
   38.30000m  699.9934m   50.5576f 
   38.40000m  699.9934m   50.5576f 
   38.50000m  699.9934m   50.5576f 
   38.60000m  699.9934m   50.5576f 
   38.70000m  699.9934m   50.5576f 
   38.80000m  699.9934m   50.5576f 
   38.90000m  699.9934m   50.5576f 
   39.00000m  699.9934m   50.5576f 
   39.10000m  699.9934m   50.5576f 
   39.20000m  699.9934m   50.5576f 
   39.30000m  699.9934m   50.5576f 
   39.40000m  699.9934m   50.5576f 
   39.50000m  699.9934m   50.5576f 
   39.60000m  699.9934m   50.5576f 
   39.70000m  699.9934m   50.5576f 
   39.80000m  699.9934m   50.5576f 
   39.90000m  699.9934m   50.5576f 
   40.00000m  699.9934m   50.5576f 
   40.10000m  699.9934m   50.5576f 
   40.20000m  699.9934m   50.5576f 
   40.30000m  699.9934m   50.5576f 
   40.40000m  699.9934m   50.5576f 
   40.50000m  699.9934m   50.5576f 
   40.60000m  699.9934m   50.5576f 
   40.70000m  699.9934m   50.5576f 
   40.80000m  699.9934m   50.5576f 
   40.90000m  699.9934m   50.5576f 
   41.00000m  699.9934m   50.5576f 
   41.10000m  699.9934m   50.5576f 
   41.20000m  699.9934m   50.5576f 
   41.30000m  699.9934m   50.5576f 
   41.40000m  699.9934m   50.5576f 
   41.50000m  699.9934m   50.5576f 
   41.60000m  699.9934m   50.5576f 
   41.70000m  699.9934m   50.5576f 
   41.80000m  699.9934m   50.5576f 
   41.90000m  699.9934m   50.5576f 
   42.00000m  699.9934m   50.5576f 
   42.10000m  699.9934m   50.5576f 
   42.20000m  699.9934m   50.5576f 
   42.30000m  699.9934m   50.5576f 
   42.40000m  699.9934m   50.5576f 
   42.50000m  699.9934m   50.5576f 
   42.60000m  699.9934m   50.5576f 
   42.70000m  699.9934m   50.5576f 
   42.80000m  699.9934m   50.5576f 
   42.90000m  699.9934m   50.5576f 
   43.00000m  699.9934m   50.5576f 
   43.10000m  699.9934m   50.5576f 
   43.20000m  699.9934m   50.5576f 
   43.30000m  699.9934m   50.5576f 
   43.40000m  699.9934m   50.5576f 
   43.50000m  699.9934m   50.5576f 
   43.60000m  699.9934m   50.5576f 
   43.70000m  699.9934m   50.5576f 
   43.80000m  699.9934m   50.5576f 
   43.90000m  699.9934m   50.5576f 
   44.00000m  699.9934m   50.5576f 
   44.10000m  699.9934m   50.5576f 
   44.20000m  699.9934m   50.5575f 
   44.30000m  699.9934m   50.5575f 
   44.40000m  699.9934m   50.5575f 
   44.50000m  699.9934m   50.5575f 
   44.60000m  699.9934m   50.5575f 
   44.70000m  699.9934m   50.5575f 
   44.80000m  699.9934m   50.5575f 
   44.90000m  699.9934m   50.5575f 
   45.00000m  699.9935m   50.5575f 
   45.10000m  699.9935m   50.5575f 
   45.20000m  699.9935m   50.5575f 
   45.30000m  699.9935m   50.5575f 
   45.40000m  699.9935m   50.5575f 
   45.50000m  699.9935m   50.5575f 
   45.60000m  699.9935m   50.5575f 
   45.70000m  699.9935m   50.5575f 
   45.80000m  699.9935m   50.5575f 
   45.90000m  699.9935m   50.5575f 
   46.00000m  699.9935m   50.5575f 
   46.10000m  699.9935m   50.5575f 
   46.20000m  699.9935m   50.5575f 
   46.30000m  699.9935m   50.5575f 
   46.40000m  699.9935m   50.5575f 
   46.50000m  699.9935m   50.5575f 
   46.60000m  699.9935m   50.5575f 
   46.70000m  699.9935m   50.5575f 
   46.80000m  699.9935m   50.5575f 
   46.90000m  699.9935m   50.5575f 
   47.00000m  699.9935m   50.5575f 
   47.10000m  699.9935m   50.5575f 
   47.20000m  699.9935m   50.5575f 
   47.30000m  699.9935m   50.5575f 
   47.40000m  699.9935m   50.5575f 
   47.50000m  699.9935m   50.5575f 
   47.60000m  699.9935m   50.5575f 
   47.70000m  699.9935m   50.5575f 
   47.80000m  699.9935m   50.5575f 
   47.90000m  699.9935m   50.5575f 
   48.00000m  699.9935m   50.5575f 
   48.10000m  699.9935m   50.5575f 
   48.20000m  699.9935m   50.5575f 
   48.30000m  699.9935m   50.5575f 
   48.40000m  699.9935m   50.5575f 
   48.50000m  699.9935m   50.5575f 
   48.60000m  699.9935m   50.5575f 
   48.70000m  699.9935m   50.5575f 
   48.80000m  699.9935m   50.5575f 
   48.90000m  699.9935m   50.5575f 
   49.00000m  699.9935m   50.5575f 
   49.10000m  699.9935m   50.5575f 
   49.20000m  699.9935m   50.5575f 
   49.30000m  699.9935m   50.5575f 
   49.40000m  699.9935m   50.5575f 
   49.50000m  699.9935m   50.5575f 
   49.60000m  699.9935m   50.5575f 
   49.70000m  699.9935m   50.5575f 
   49.80000m  699.9935m   50.5575f 
   49.90000m  699.9935m   50.5575f 
   50.00000m  699.9935m   50.5575f 
   50.10000m  699.9935m   50.5575f 
   50.20000m  699.9935m   50.5575f 
   50.30000m  699.9935m   50.5575f 
   50.40000m  699.9935m   50.5575f 
   50.50000m  699.9935m   50.5575f 
   50.60000m  699.9935m   50.5575f 
   50.70000m  699.9935m   50.5575f 
   50.80000m  699.9935m   50.5575f 
   50.90000m  699.9935m   50.5575f 
   51.00000m  699.9935m   50.5575f 
   51.10000m  699.9935m   50.5574f 
   51.20000m  699.9935m   50.5574f 
   51.30000m  699.9935m   50.5574f 
   51.40000m  699.9935m   50.5574f 
