 ****** HSPICE -- Q-2020.03-SP2-2 linux64 (Nov  1 2020) ******                  
  Copyright (c) 1986 - 2025 by Synopsys, Inc. All Rights Reserved.              
  This software and the associated documentation are proprietary
  to Synopsys, Inc. This software may only be used in accordance
  with the terms and conditions of a written license agreement with
  Synopsys, Inc. All other use, reproduction, or distribution of
  this software is strictly prohibited.
  Input File: ex1_1.sp                                                          
  Command line options: /RAID2/cad/synopsys/hspice/2020.03-sp2-2/hspice/linux64/hspice -i ex1_1.sp -o ex1_1.lis
  Start time: Tue Mar 18 21:10:22 2025
 lic:  
 lic: FLEXlm: SDK_12.6 
 lic: USER:   es25MCS042           HOSTNAME: ee28 
 lic: HOSTID: "d85ed3efc19a"       PID:      215024 
 lic: Using FLEXlm license file: 
 lic: 26585@lshc 
 lic: Checkout 1 hspice 
 lic: License/Maintenance for hspice will expire on 14-may-2025/2024.09 
 lic: 317(in_use)/1100(total) FLOATING license(s) on SERVER 26585@lshc 
 lic:   
  
      
             
 Warning:'Floating bulk' occurs 1 times
 Summary of floating bulk:
 -----------------------
 |Node      |Device    |
 |----------+----------|
 |x         |mn_ax1    |
 -----------------------
              
 *****************************************************************
 ******  option summary
 ******
 runlvl  = 3         bypass  = 2.0000    
 convergence problems in dc sweep curves at  0.26019    
  resimulating with dc convergence controls

 convergence problem in dc sweep curve at 0.26019    
 pseudo tran is tried

  *** pseudo tran succeeded *** 
 ******
 .title ex1_1

 ****** dc transfer curves tnom=  25.000 temp=  25.000 ******
x

 volt         voltage    voltage   
             q          qb         
 -707.10678m  699.7292m  129.4618u 
 -707.00678m  699.7295m  129.3017u 
 -706.90678m  699.7298m  129.1418u 
 -706.80678m  699.7301m  128.9821u 
 -706.70678m  699.7305m  128.8227u 
 -706.60678m  699.7308m  128.6634u 
 -706.50678m  699.7311m  128.5043u 
 -706.40678m  699.7314m  128.3455u 
 -706.30678m  699.7317m  128.1868u 
 -706.20678m  699.7321m  128.0284u 
 -706.10678m  699.7324m  127.8701u 
 -706.00678m  699.7327m  127.7121u 
 -705.90678m  699.7330m  127.5543u 
 -705.80678m  699.7334m  127.3966u 
 -705.70678m  699.7337m  127.2392u 
 -705.60678m  699.7340m  127.0820u 
 -705.50678m  699.7343m  126.9250u 
 -705.40678m  699.7346m  126.7681u 
 -705.30678m  699.7350m  126.6115u 
 -705.20678m  699.7353m  126.4551u 
 -705.10678m  699.7356m  126.2989u 
 -705.00678m  699.7359m  126.1429u 
 -704.90678m  699.7362m  125.9871u 
 -704.80678m  699.7366m  125.8315u 
 -704.70678m  699.7369m  125.6760u 
 -704.60678m  699.7372m  125.5208u 
 -704.50678m  699.7375m  125.3658u 
 -704.40678m  699.7378m  125.2110u 
 -704.30678m  699.7381m  125.0564u 
 -704.20678m  699.7384m  124.9020u 
 -704.10678m  699.7388m  124.7478u 
 -704.00678m  699.7391m  124.5938u 
 -703.90678m  699.7394m  124.4400u 
 -703.80678m  699.7397m  124.2864u 
 -703.70678m  699.7400m  124.1329u 
 -703.60678m  699.7403m  123.9797u 
 -703.50678m  699.7406m  123.8267u 
 -703.40678m  699.7410m  123.6739u 
 -703.30678m  699.7413m  123.5212u 
 -703.20678m  699.7416m  123.3688u 
 -703.10678m  699.7419m  123.2166u 
 -703.00678m  699.7422m  123.0645u 
 -702.90678m  699.7425m  122.9127u 
 -702.80678m  699.7428m  122.7610u 
 -702.70678m  699.7431m  122.6096u 
 -702.60678m  699.7434m  122.4583u 
 -702.50678m  699.7437m  122.3073u 
 -702.40678m  699.7440m  122.1564u 
 -702.30678m  699.7444m  122.0057u 
 -702.20678m  699.7447m  121.8553u 
 -702.10678m  699.7450m  121.7050u 
 -702.00678m  699.7453m  121.5549u 
 -701.90678m  699.7456m  121.4050u 
 -701.80678m  699.7459m  121.2553u 
 -701.70678m  699.7462m  121.1058u 
 -701.60678m  699.7465m  120.9564u 
 -701.50678m  699.7468m  120.8073u 
 -701.40678m  699.7471m  120.6584u 
 -701.30678m  699.7474m  120.5096u 
 -701.20678m  699.7477m  120.3611u 
 -701.10678m  699.7480m  120.2127u 
 -701.00678m  699.7483m  120.0645u 
 -700.90678m  699.7486m  119.9166u 
 -700.80678m  699.7489m  119.7688u 
 -700.70678m  699.7492m  119.6212u 
 -700.60678m  699.7495m  119.4738u 
 -700.50678m  699.7498m  119.3265u 
 -700.40678m  699.7501m  119.1795u 
 -700.30678m  699.7504m  119.0327u 
 -700.20678m  699.7507m  118.8860u 
 -700.10678m  699.7510m  118.7396u 
 -700.00678m  699.7513m  118.5933u 
 -699.90678m  699.7516m  118.4472u 
 -699.80678m  699.7519m  118.3013u 
 -699.70678m  699.7522m  118.1556u 
 -699.60678m  699.7525m  118.0101u 
 -699.50678m  699.7528m  117.8647u 
 -699.40678m  699.7531m  117.7196u 
 -699.30678m  699.7534m  117.5746u 
 -699.20678m  699.7537m  117.4298u 
 -699.10678m  699.7540m  117.2852u 
 -699.00678m  699.7543m  117.1408u 
 -698.90678m  699.7546m  116.9966u 
 -698.80678m  699.7549m  116.8526u 
 -698.70678m  699.7552m  116.7087u 
 -698.60678m  699.7555m  116.5651u 
 -698.50678m  699.7558m  116.4216u 
 -698.40678m  699.7561m  116.2783u 
 -698.30678m  699.7563m  116.1352u 
 -698.20678m  699.7566m  115.9923u 
 -698.10678m  699.7569m  115.8495u 
 -698.00678m  699.7572m  115.7070u 
 -697.90678m  699.7575m  115.5646u 
 -697.80678m  699.7578m  115.4224u 
 -697.70678m  699.7581m  115.2804u 
 -697.60678m  699.7584m  115.1386u 
 -697.50678m  699.7587m  114.9969u 
 -697.40678m  699.7590m  114.8554u 
 -697.30678m  699.7592m  114.7142u 
 -697.20678m  699.7595m  114.5731u 
 -697.10678m  699.7598m  114.4321u 
 -697.00678m  699.7601m  114.2914u 
 -696.90678m  699.7604m  114.1509u 
 -696.80678m  699.7607m  114.0105u 
 -696.70678m  699.7610m  113.8703u 
 -696.60678m  699.7613m  113.7303u 
 -696.50678m  699.7615m  113.5904u 
 -696.40678m  699.7618m  113.4508u 
 -696.30678m  699.7621m  113.3113u 
 -696.20678m  699.7624m  113.1720u 
 -696.10678m  699.7627m  113.0329u 
 -696.00678m  699.7630m  112.8939u 
 -695.90678m  699.7633m  112.7552u 
 -695.80678m  699.7635m  112.6166u 
 -695.70678m  699.7638m  112.4782u 
 -695.60678m  699.7641m  112.3399u 
 -695.50678m  699.7644m  112.2019u 
 -695.40678m  699.7647m  112.0640u 
 -695.30678m  699.7650m  111.9263u 
 -695.20678m  699.7652m  111.7888u 
 -695.10678m  699.7655m  111.6515u 
 -695.00678m  699.7658m  111.5143u 
 -694.90678m  699.7661m  111.3773u 
 -694.80678m  699.7664m  111.2405u 
 -694.70678m  699.7666m  111.1038u 
 -694.60678m  699.7669m  110.9674u 
 -694.50678m  699.7672m  110.8311u 
 -694.40678m  699.7675m  110.6950u 
 -694.30678m  699.7677m  110.5590u 
 -694.20678m  699.7680m  110.4233u 
 -694.10678m  699.7683m  110.2877u 
 -694.00678m  699.7686m  110.1523u 
 -693.90678m  699.7689m  110.0170u 
 -693.80678m  699.7691m  109.8819u 
 -693.70678m  699.7694m  109.7470u 
 -693.60678m  699.7697m  109.6123u 
 -693.50678m  699.7700m  109.4778u 
 -693.40678m  699.7702m  109.3434u 
 -693.30678m  699.7705m  109.2092u 
 -693.20678m  699.7708m  109.0751u 
 -693.10678m  699.7711m  108.9413u 
 -693.00678m  699.7713m  108.8076u 
 -692.90678m  699.7716m  108.6741u 
 -692.80678m  699.7719m  108.5407u 
 -692.70678m  699.7722m  108.4075u 
 -692.60678m  699.7724m  108.2745u 
 -692.50678m  699.7727m  108.1417u 
 -692.40678m  699.7730m  108.0090u 
 -692.30678m  699.7732m  107.8765u 
 -692.20678m  699.7735m  107.7442u 
 -692.10678m  699.7738m  107.6120u 
 -692.00678m  699.7741m  107.4801u 
 -691.90678m  699.7743m  107.3482u 
 -691.80678m  699.7746m  107.2166u 
 -691.70678m  699.7749m  107.0851u 
 -691.60678m  699.7751m  106.9538u 
 -691.50678m  699.7754m  106.8227u 
 -691.40678m  699.7757m  106.6917u 
 -691.30678m  699.7759m  106.5609u 
 -691.20678m  699.7762m  106.4302u 
 -691.10678m  699.7765m  106.2997u 
 -691.00678m  699.7767m  106.1694u 
 -690.90678m  699.7770m  106.0393u 
 -690.80678m  699.7773m  105.9093u 
 -690.70678m  699.7775m  105.7795u 
 -690.60678m  699.7778m  105.6499u 
 -690.50678m  699.7781m  105.5204u 
 -690.40678m  699.7783m  105.3911u 
 -690.30678m  699.7786m  105.2620u 
 -690.20678m  699.7789m  105.1330u 
 -690.10678m  699.7791m  105.0042u 
 -690.00678m  699.7794m  104.8755u 
 -689.90678m  699.7797m  104.7470u 
 -689.80678m  699.7799m  104.6187u 
 -689.70678m  699.7802m  104.4906u 
 -689.60678m  699.7804m  104.3626u 
 -689.50678m  699.7807m  104.2347u 
 -689.40678m  699.7810m  104.1071u 
 -689.30678m  699.7812m  103.9796u 
 -689.20678m  699.7815m  103.8522u 
 -689.10678m  699.7817m  103.7251u 
 -689.00678m  699.7820m  103.5980u 
 -688.90678m  699.7823m  103.4712u 
 -688.80678m  699.7825m  103.3445u 
 -688.70678m  699.7828m  103.2180u 
 -688.60678m  699.7830m  103.0916u 
 -688.50678m  699.7833m  102.9654u 
 -688.40678m  699.7836m  102.8394u 
 -688.30678m  699.7838m  102.7135u 
 -688.20678m  699.7841m  102.5878u 
 -688.10678m  699.7843m  102.4622u 
 -688.00678m  699.7846m  102.3368u 
 -687.90678m  699.7849m  102.2116u 
 -687.80678m  699.7851m  102.0865u 
 -687.70678m  699.7854m  101.9616u 
 -687.60678m  699.7856m  101.8369u 
 -687.50678m  699.7859m  101.7123u 
 -687.40678m  699.7861m  101.5878u 
 -687.30678m  699.7864m  101.4635u 
 -687.20678m  699.7866m  101.3394u 
 -687.10678m  699.7869m  101.2155u 
 -687.00678m  699.7871m  101.0917u 
 -686.90678m  699.7874m  100.9680u 
 -686.80678m  699.7877m  100.8445u 
 -686.70678m  699.7879m  100.7212u 
 -686.60678m  699.7882m  100.5980u 
 -686.50678m  699.7884m  100.4750u 
 -686.40678m  699.7887m  100.3522u 
 -686.30678m  699.7889m  100.2295u 
 -686.20678m  699.7892m  100.1069u 
 -686.10678m  699.7894m   99.9845u 
 -686.00678m  699.7897m   99.8623u 
 -685.90678m  699.7899m   99.7402u 
 -685.80678m  699.7902m   99.6183u 
 -685.70678m  699.7904m   99.4965u 
 -685.60678m  699.7907m   99.3749u 
 -685.50678m  699.7909m   99.2535u 
 -685.40678m  699.7912m   99.1322u 
 -685.30678m  699.7914m   99.0111u 
 -685.20678m  699.7917m   98.8901u 
 -685.10678m  699.7919m   98.7692u 
 -685.00678m  699.7922m   98.6486u 
 -684.90678m  699.7924m   98.5280u 
 -684.80678m  699.7927m   98.4077u 
 -684.70678m  699.7929m   98.2875u 
 -684.60678m  699.7931m   98.1674u 
 -684.50678m  699.7934m   98.0475u 
 -684.40678m  699.7936m   97.9277u 
 -684.30678m  699.7939m   97.8081u 
 -684.20678m  699.7941m   97.6887u 
 -684.10678m  699.7944m   97.5694u 
 -684.00678m  699.7946m   97.4502u 
 -683.90678m  699.7949m   97.3312u 
 -683.80678m  699.7951m   97.2124u 
 -683.70678m  699.7954m   97.0937u 
 -683.60678m  699.7956m   96.9752u 
 -683.50678m  699.7958m   96.8568u 
 -683.40678m  699.7961m   96.7385u 
 -683.30678m  699.7963m   96.6205u 
 -683.20678m  699.7966m   96.5025u 
 -683.10678m  699.7968m   96.3847u 
 -683.00678m  699.7971m   96.2671u 
 -682.90678m  699.7973m   96.1496u 
 -682.80678m  699.7975m   96.0323u 
 -682.70678m  699.7978m   95.9151u 
 -682.60678m  699.7980m   95.7981u 
 -682.50678m  699.7983m   95.6812u 
 -682.40678m  699.7985m   95.5644u 
 -682.30678m  699.7987m   95.4478u 
 -682.20678m  699.7990m   95.3314u 
 -682.10678m  699.7992m   95.2151u 
 -682.00678m  699.7995m   95.0990u 
 -681.90678m  699.7997m   94.9830u 
 -681.80678m  699.7999m   94.8671u 
 -681.70678m  699.8002m   94.7514u 
 -681.60678m  699.8004m   94.6359u 
 -681.50678m  699.8006m   94.5205u 
 -681.40678m  699.8009m   94.4052u 
 -681.30678m  699.8011m   94.2901u 
 -681.20678m  699.8014m   94.1751u 
 -681.10678m  699.8016m   94.0603u 
 -681.00678m  699.8018m   93.9457u 
 -680.90678m  699.8021m   93.8311u 
 -680.80678m  699.8023m   93.7168u 
 -680.70678m  699.8025m   93.6025u 
 -680.60678m  699.8028m   93.4884u 
 -680.50678m  699.8030m   93.3745u 
 -680.40678m  699.8032m   93.2607u 
 -680.30678m  699.8035m   93.1470u 
 -680.20678m  699.8037m   93.0335u 
 -680.10678m  699.8039m   92.9202u 
 -680.00678m  699.8042m   92.8070u 
 -679.90678m  699.8044m   92.6939u 
 -679.80678m  699.8046m   92.5810u 
 -679.70678m  699.8049m   92.4682u 
 -679.60678m  699.8051m   92.3555u 
 -679.50678m  699.8053m   92.2430u 
 -679.40678m  699.8056m   92.1307u 
 -679.30678m  699.8058m   92.0185u 
 -679.20678m  699.8060m   91.9064u 
 -679.10678m  699.8062m   91.7945u 
 -679.00678m  699.8065m   91.6827u 
 -678.90678m  699.8067m   91.5710u 
 -678.80678m  699.8069m   91.4595u 
 -678.70678m  699.8072m   91.3482u 
 -678.60678m  699.8074m   91.2370u 
 -678.50678m  699.8076m   91.1259u 
 -678.40678m  699.8078m   91.0149u 
 -678.30678m  699.8081m   90.9042u 
 -678.20678m  699.8083m   90.7935u 
 -678.10678m  699.8085m   90.6830u 
 -678.00678m  699.8088m   90.5726u 
 -677.90678m  699.8090m   90.4624u 
 -677.80678m  699.8092m   90.3523u 
 -677.70678m  699.8094m   90.2423u 
 -677.60678m  699.8097m   90.1325u 
 -677.50678m  699.8099m   90.0229u 
 -677.40678m  699.8101m   89.9133u 
 -677.30678m  699.8103m   89.8039u 
 -677.20678m  699.8106m   89.6947u 
 -677.10678m  699.8108m   89.5856u 
 -677.00678m  699.8110m   89.4766u 
 -676.90678m  699.8112m   89.3678u 
 -676.80678m  699.8115m   89.2591u 
 -676.70678m  699.8117m   89.1505u 
 -676.60678m  699.8119m   89.0421u 
 -676.50678m  699.8121m   88.9338u 
 -676.40678m  699.8124m   88.8257u 
 -676.30678m  699.8126m   88.7177u 
 -676.20678m  699.8128m   88.6098u 
 -676.10678m  699.8130m   88.5021u 
 -676.00678m  699.8132m   88.3945u 
 -675.90678m  699.8135m   88.2870u 
 -675.80678m  699.8137m   88.1797u 
 -675.70678m  699.8139m   88.0725u 
 -675.60678m  699.8141m   87.9654u 
 -675.50678m  699.8143m   87.8585u 
 -675.40678m  699.8146m   87.7517u 
 -675.30678m  699.8148m   87.6451u 
 -675.20678m  699.8150m   87.5386u 
 -675.10678m  699.8152m   87.4322u 
 -675.00678m  699.8154m   87.3260u 
 -674.90678m  699.8157m   87.2199u 
 -674.80678m  699.8159m   87.1139u 
 -674.70678m  699.8161m   87.0081u 
 -674.60678m  699.8163m   86.9024u 
 -674.50678m  699.8165m   86.7968u 
 -674.40678m  699.8168m   86.6914u 
 -674.30678m  699.8170m   86.5861u 
 -674.20678m  699.8172m   86.4809u 
 -674.10678m  699.8174m   86.3759u 
 -674.00678m  699.8176m   86.2710u 
 -673.90678m  699.8178m   86.1662u 
 -673.80678m  699.8180m   86.0616u 
 -673.70678m  699.8183m   85.9571u 
 -673.60678m  699.8185m   85.8527u 
 -673.50678m  699.8187m   85.7485u 
 -673.40678m  699.8189m   85.6444u 
 -673.30678m  699.8191m   85.5405u 
 -673.20678m  699.8193m   85.4366u 
 -673.10678m  699.8195m   85.3329u 
 -673.00678m  699.8198m   85.2293u 
 -672.90678m  699.8200m   85.1259u 
 -672.80678m  699.8202m   85.0226u 
 -672.70678m  699.8204m   84.9194u 
 -672.60678m  699.8206m   84.8164u 
 -672.50678m  699.8208m   84.7135u 
 -672.40678m  699.8210m   84.6107u 
 -672.30678m  699.8213m   84.5080u 
 -672.20678m  699.8215m   84.4055u 
 -672.10678m  699.8217m   84.3031u 
 -672.00678m  699.8219m   84.2008u 
 -671.90678m  699.8221m   84.0987u 
 -671.80678m  699.8223m   83.9967u 
 -671.70678m  699.8225m   83.8948u 
 -671.60678m  699.8227m   83.7931u 
 -671.50678m  699.8229m   83.6914u 
 -671.40678m  699.8231m   83.5900u 
 -671.30678m  699.8234m   83.4886u 
 -671.20678m  699.8236m   83.3874u 
 -671.10678m  699.8238m   83.2863u 
 -671.00678m  699.8240m   83.1853u 
 -670.90678m  699.8242m   83.0844u 
 -670.80678m  699.8244m   82.9837u 
 -670.70678m  699.8246m   82.8831u 
 -670.60678m  699.8248m   82.7827u 
 -670.50678m  699.8250m   82.6823u 
 -670.40678m  699.8252m   82.5821u 
 -670.30678m  699.8254m   82.4820u 
 -670.20678m  699.8256m   82.3821u 
 -670.10678m  699.8258m   82.2822u 
 -670.00678m  699.8260m   82.1825u 
 -669.90678m  699.8263m   82.0830u 
 -669.80678m  699.8265m   81.9835u 
 -669.70678m  699.8267m   81.8842u 
 -669.60678m  699.8269m   81.7850u 
 -669.50678m  699.8271m   81.6859u 
 -669.40678m  699.8273m   81.5870u 
 -669.30678m  699.8275m   81.4882u 
 -669.20678m  699.8277m   81.3895u 
 -669.10678m  699.8279m   81.2909u 
 -669.00678m  699.8281m   81.1924u 
 -668.90678m  699.8283m   81.0941u 
 -668.80678m  699.8285m   80.9959u 
 -668.70678m  699.8287m   80.8978u 
 -668.60678m  699.8289m   80.7999u 
 -668.50678m  699.8291m   80.7021u 
 -668.40678m  699.8293m   80.6044u 
 -668.30678m  699.8295m   80.5068u 
 -668.20678m  699.8297m   80.4093u 
 -668.10678m  699.8299m   80.3120u 
 -668.00678m  699.8301m   80.2148u 
 -667.90678m  699.8303m   80.1177u 
 -667.80678m  699.8305m   80.0208u 
 -667.70678m  699.8307m   79.9239u 
 -667.60678m  699.8309m   79.8272u 
 -667.50678m  699.8311m   79.7306u 
 -667.40678m  699.8313m   79.6341u 
 -667.30678m  699.8315m   79.5378u 
 -667.20678m  699.8317m   79.4416u 
 -667.10678m  699.8319m   79.3455u 
 -667.00678m  699.8321m   79.2495u 
 -666.90678m  699.8323m   79.1536u 
 -666.80678m  699.8325m   79.0579u 
 -666.70678m  699.8327m   78.9623u 
 -666.60678m  699.8329m   78.8668u 
 -666.50678m  699.8331m   78.7714u 
 -666.40678m  699.8333m   78.6761u 
 -666.30678m  699.8335m   78.5810u 
 -666.20678m  699.8337m   78.4860u 
 -666.10678m  699.8339m   78.3911u 
 -666.00678m  699.8341m   78.2963u 
 -665.90678m  699.8343m   78.2016u 
 -665.80678m  699.8345m   78.1071u 
 -665.70678m  699.8347m   78.0127u 
 -665.60678m  699.8348m   77.9184u 
 -665.50678m  699.8350m   77.8242u 
 -665.40678m  699.8352m   77.7302u 
 -665.30678m  699.8354m   77.6362u 
 -665.20678m  699.8356m   77.5424u 
 -665.10678m  699.8358m   77.4487u 
 -665.00678m  699.8360m   77.3551u 
 -664.90678m  699.8362m   77.2616u 
 -664.80678m  699.8364m   77.1683u 
 -664.70678m  699.8366m   77.0751u 
 -664.60678m  699.8368m   76.9819u 
 -664.50678m  699.8370m   76.8889u 
 -664.40678m  699.8372m   76.7961u 
 -664.30678m  699.8374m   76.7033u 
 -664.20678m  699.8376m   76.6107u 
 -664.10678m  699.8377m   76.5181u 
 -664.00678m  699.8379m   76.4257u 
 -663.90678m  699.8381m   76.3334u 
 -663.80678m  699.8383m   76.2413u 
 -663.70678m  699.8385m   76.1492u 
 -663.60678m  699.8387m   76.0573u 
 -663.50678m  699.8389m   75.9654u 
 -663.40678m  699.8391m   75.8737u 
 -663.30678m  699.8393m   75.7821u 
 -663.20678m  699.8395m   75.6907u 
 -663.10678m  699.8396m   75.5993u 
 -663.00678m  699.8398m   75.5080u 
 -662.90678m  699.8400m   75.4169u 
 -662.80678m  699.8402m   75.3259u 
 -662.70678m  699.8404m   75.2350u 
 -662.60678m  699.8406m   75.1442u 
 -662.50678m  699.8408m   75.0535u 
 -662.40678m  699.8410m   74.9630u 
 -662.30678m  699.8411m   74.8725u 
 -662.20678m  699.8413m   74.7822u 
 -662.10678m  699.8415m   74.6920u 
 -662.00678m  699.8417m   74.6019u 
 -661.90678m  699.8419m   74.5119u 
 -661.80678m  699.8421m   74.4220u 
 -661.70678m  699.8423m   74.3323u 
 -661.60678m  699.8424m   74.2426u 
 -661.50678m  699.8426m   74.1531u 
 -661.40678m  699.8428m   74.0636u 
 -661.30678m  699.8430m   73.9743u 
 -661.20678m  699.8432m   73.8851u 
 -661.10678m  699.8434m   73.7961u 
 -661.00678m  699.8436m   73.7071u 
 -660.90678m  699.8437m   73.6182u 
 -660.80678m  699.8439m   73.5295u 
 -660.70678m  699.8441m   73.4408u 
 -660.60678m  699.8443m   73.3523u 
 -660.50678m  699.8445m   73.2639u 
 -660.40678m  699.8447m   73.1756u 
 -660.30678m  699.8448m   73.0874u 
 -660.20678m  699.8450m   72.9993u 
 -660.10678m  699.8452m   72.9114u 
 -660.00678m  699.8454m   72.8235u 
 -659.90678m  699.8456m   72.7358u 
 -659.80678m  699.8457m   72.6481u 
 -659.70678m  699.8459m   72.5606u 
 -659.60678m  699.8461m   72.4732u 
 -659.50678m  699.8463m   72.3859u 
 -659.40678m  699.8465m   72.2987u 
 -659.30678m  699.8467m   72.2116u 
 -659.20678m  699.8468m   72.1246u 
 -659.10678m  699.8470m   72.0378u 
 -659.00678m  699.8472m   71.9510u 
 -658.90678m  699.8474m   71.8644u 
 -658.80678m  699.8475m   71.7778u 
 -658.70678m  699.8477m   71.6914u 
 -658.60678m  699.8479m   71.6051u 
 -658.50678m  699.8481m   71.5189u 
 -658.40678m  699.8483m   71.4328u 
 -658.30678m  699.8484m   71.3468u 
 -658.20678m  699.8486m   71.2609u 
 -658.10678m  699.8488m   71.1751u 
 -658.00678m  699.8490m   71.0895u 
 -657.90678m  699.8492m   71.0039u 
 -657.80678m  699.8493m   70.9185u 
 -657.70678m  699.8495m   70.8331u 
 -657.60678m  699.8497m   70.7479u 
 -657.50678m  699.8499m   70.6627u 
 -657.40678m  699.8500m   70.5777u 
 -657.30678m  699.8502m   70.4928u 
 -657.20678m  699.8504m   70.4080u 
 -657.10678m  699.8506m   70.3233u 
 -657.00678m  699.8507m   70.2387u 
 -656.90678m  699.8509m   70.1542u 
 -656.80678m  699.8511m   70.0698u 
 -656.70678m  699.8513m   69.9856u 
