 ****** HSPICE -- Q-2020.03-SP2-2 linux64 (Nov  1 2020) ******                  
  Copyright (c) 1986 - 2025 by Synopsys, Inc. All Rights Reserved.              
  This software and the associated documentation are proprietary
  to Synopsys, Inc. This software may only be used in accordance
  with the terms and conditions of a written license agreement with
  Synopsys, Inc. All other use, reproduction, or distribution of
  this software is strictly prohibited.
  Input File: ex1_1.sp                                                          
  Command line options: /RAID2/cad/synopsys/hspice/2020.03-sp2-2/hspice/linux64/hspice -i ex1_1.sp -o ex1_1.lis
  Start time: Tue Mar 18 20:30:09 2025
 lic:  
 lic: FLEXlm: SDK_12.6 
 lic: USER:   es25MCS042           HOSTNAME: ee28 
 lic: HOSTID: "d85ed3efc19a"       PID:      200698 
 lic: Using FLEXlm license file: 
 lic: 26585@lshc 
 lic: Checkout 1 hspice 
 lic: License/Maintenance for hspice will expire on 14-may-2025/2024.09 
 lic: 295(in_use)/1100(total) FLOATING license(s) on SERVER 26585@lshc 
 lic:   
  
      
             
 Warning:'Floating bulk' occurs 1 times
 Summary of floating bulk:
 -----------------------
 |Node      |Device    |
 |----------+----------|
 |x         |mp_pu1    |
 -----------------------
              
 *****************************************************************
 ******  option summary
 ******
 runlvl  = 3         bypass  = 2.0000    
 convergence problems in dc sweep curves at  0.21590    
  resimulating with dc convergence controls

 convergence problem in dc sweep curve at 0.21590    
 pseudo tran is tried

  *** pseudo tran succeeded *** 
 ******
 .title ex1_1

 ****** dc transfer curves tnom=  25.000 temp=  25.000 ******
x

 volt         voltage    voltage   
             q          qb         
    0.        369.3009m  369.3009m 
  100.00000u  369.4450m  369.1567m 
  200.00000u  369.5892m  369.0125m 
  300.00000u  369.7334m  368.8684m 
  400.00000u  369.8775m  368.7242m 
  500.00000u  370.0217m  368.5800m 
  600.00000u  370.1659m  368.4358m 
  700.00000u  370.3100m  368.2917m 
  800.00000u  370.4542m  368.1475m 
  900.00000u  370.5984m  368.0033m 
    1.00000m  370.7426m  367.8592m 
    1.10000m  370.8867m  367.7150m 
    1.20000m  371.0309m  367.5708m 
    1.30000m  371.1751m  367.4267m 
    1.40000m  371.3192m  367.2825m 
    1.50000m  371.4634m  367.1383m 
    1.60000m  371.6076m  366.9942m 
    1.70000m  371.7517m  366.8500m 
    1.80000m  371.8959m  366.7058m 
    1.90000m  372.0401m  366.5617m 
    2.00000m  372.1842m  366.4175m 
    2.10000m  372.3284m  366.2733m 
    2.20000m  372.4726m  366.1291m 
    2.30000m  372.6168m  365.9850m 
    2.40000m  372.7609m  365.8408m 
    2.50000m  372.9051m  365.6966m 
    2.60000m  373.0493m  365.5525m 
    2.70000m  373.1934m  365.4083m 
    2.80000m  373.3376m  365.2641m 
    2.90000m  373.4818m  365.1200m 
    3.00000m  373.6259m  364.9758m 
    3.10000m  373.7701m  364.8316m 
    3.20000m  373.9143m  364.6875m 
    3.30000m  374.0585m  364.5433m 
    3.40000m  374.2026m  364.3991m 
    3.50000m  374.3468m  364.2550m 
    3.60000m  374.4910m  364.1108m 
    3.70000m  374.6351m  363.9666m 
    3.80000m  374.7793m  363.8225m 
    3.90000m  374.9235m  363.6783m 
    4.00000m  375.0676m  363.5341m 
    4.10000m  375.2118m  363.3899m 
    4.20000m  375.3560m  363.2458m 
    4.30000m  375.5002m  363.1016m 
    4.40000m  375.6443m  362.9574m 
    4.50000m  375.7885m  362.8133m 
    4.60000m  375.9327m  362.6691m 
    4.70000m  376.0768m  362.5249m 
    4.80000m  376.2210m  362.3808m 
    4.90000m  376.3652m  362.2366m 
    5.00000m  376.5094m  362.0924m 
    5.10000m  376.6535m  361.9483m 
    5.20000m  376.7977m  361.8041m 
    5.30000m  376.9419m  361.6599m 
    5.40000m  377.0860m  361.5158m 
    5.50000m  377.2302m  361.3716m 
    5.60000m  377.3744m  361.2274m 
    5.70000m  377.5186m  361.0833m 
    5.80000m  377.6627m  360.9391m 
    5.90000m  377.8069m  360.7949m 
    6.00000m  377.9511m  360.6508m 
    6.10000m  378.0952m  360.5066m 
    6.20000m  378.2394m  360.3624m 
    6.30000m  378.3836m  360.2182m 
    6.40000m  378.5278m  360.0741m 
    6.50000m  378.6719m  359.9299m 
    6.60000m  378.8161m  359.7857m 
    6.70000m  378.9603m  359.6416m 
    6.80000m  379.1044m  359.4974m 
    6.90000m  379.2486m  359.3532m 
    7.00000m  379.3928m  359.2091m 
    7.10000m  379.5370m  359.0649m 
    7.20000m  379.6811m  358.9207m 
    7.30000m  379.8253m  358.7766m 
    7.40000m  379.9695m  358.6324m 
    7.50000m  380.1136m  358.4882m 
    7.60000m  380.2578m  358.3441m 
    7.70000m  380.4020m  358.1999m 
    7.80000m  380.5462m  358.0557m 
    7.90000m  380.6903m  357.9116m 
    8.00000m  380.8345m  357.7674m 
    8.10000m  380.9787m  357.6232m 
    8.20000m  381.1229m  357.4791m 
    8.30000m  381.2670m  357.3349m 
    8.40000m  381.4112m  357.1907m 
    8.50000m  381.5554m  357.0466m 
    8.60000m  381.6995m  356.9024m 
    8.70000m  381.8437m  356.7582m 
    8.80000m  381.9879m  356.6140m 
    8.90000m  382.1321m  356.4699m 
    9.00000m  382.2762m  356.3257m 
    9.10000m  382.4204m  356.1815m 
    9.20000m  382.5646m  356.0374m 
    9.30000m  382.7088m  355.8932m 
    9.40000m  382.8529m  355.7490m 
    9.50000m  382.9971m  355.6049m 
    9.60000m  383.1413m  355.4607m 
    9.70000m  383.2855m  355.3165m 
    9.80000m  383.4296m  355.1724m 
    9.90000m  383.5738m  355.0282m 
   10.00000m  383.7180m  354.8840m 
   10.10000m  383.8621m  354.7399m 
   10.20000m  384.0063m  354.5957m 
   10.30000m  384.1505m  354.4515m 
   10.40000m  384.2947m  354.3074m 
   10.50000m  384.4388m  354.1632m 
   10.60000m  384.5830m  354.0190m 
   10.70000m  384.7272m  353.8749m 
   10.80000m  384.8714m  353.7307m 
   10.90000m  385.0155m  353.5865m 
   11.00000m  385.1597m  353.4423m 
   11.10000m  385.3039m  353.2982m 
   11.20000m  385.4481m  353.1540m 
   11.30000m  385.5922m  353.0098m 
   11.40000m  385.7364m  352.8657m 
   11.50000m  385.8806m  352.7215m 
   11.60000m  386.0248m  352.5773m 
   11.70000m  386.1689m  352.4332m 
   11.80000m  386.3131m  352.2890m 
   11.90000m  386.4573m  352.1448m 
   12.00000m  386.6015m  352.0007m 
   12.10000m  386.7456m  351.8565m 
   12.20000m  386.8898m  351.7123m 
   12.30000m  387.0340m  351.5682m 
   12.40000m  387.1782m  351.4240m 
   12.50000m  387.3223m  351.2798m 
   12.60000m  387.4665m  351.1356m 
   12.70000m  387.6107m  350.9915m 
   12.80000m  387.7549m  350.8473m 
   12.90000m  387.8990m  350.7031m 
   13.00000m  388.0432m  350.5590m 
   13.10000m  388.1874m  350.4148m 
   13.20000m  388.3316m  350.2706m 
   13.30000m  388.4757m  350.1265m 
   13.40000m  388.6199m  349.9823m 
   13.50000m  388.7641m  349.8381m 
   13.60000m  388.9083m  349.6940m 
   13.70000m  389.0525m  349.5498m 
   13.80000m  389.1966m  349.4056m 
   13.90000m  389.3408m  349.2615m 
   14.00000m  389.4850m  349.1173m 
   14.10000m  389.6292m  348.9731m 
   14.20000m  389.7733m  348.8289m 
   14.30000m  389.9175m  348.6848m 
   14.40000m  390.0617m  348.5406m 
   14.50000m  390.2059m  348.3964m 
   14.60000m  390.3500m  348.2523m 
   14.70000m  390.4942m  348.1081m 
   14.80000m  390.6384m  347.9639m 
   14.90000m  390.7826m  347.8198m 
   15.00000m  390.9268m  347.6756m 
   15.10000m  391.0709m  347.5314m 
   15.20000m  391.2151m  347.3873m 
   15.30000m  391.3593m  347.2431m 
   15.40000m  391.5035m  347.0989m 
   15.50000m  391.6476m  346.9547m 
   15.60000m  391.7918m  346.8106m 
   15.70000m  391.9360m  346.6664m 
   15.80000m  392.0802m  346.5222m 
   15.90000m  392.2244m  346.3781m 
   16.00000m  392.3685m  346.2339m 
   16.10000m  392.5127m  346.0897m 
   16.20000m  392.6569m  345.9456m 
   16.30000m  392.8011m  345.8014m 
   16.40000m  392.9453m  345.6572m 
   16.50000m  393.0894m  345.5130m 
   16.60000m  393.2336m  345.3689m 
   16.70000m  393.3778m  345.2247m 
   16.80000m  393.5220m  345.0805m 
   16.90000m  393.6661m  344.9364m 
   17.00000m  393.8103m  344.7922m 
   17.10000m  393.9545m  344.6480m 
   17.20000m  394.0987m  344.5039m 
   17.30000m  394.2429m  344.3597m 
   17.40000m  394.3870m  344.2155m 
   17.50000m  394.5312m  344.0713m 
   17.60000m  394.6754m  343.9272m 
   17.70000m  394.8196m  343.7830m 
   17.80000m  394.9638m  343.6388m 
   17.90000m  395.1079m  343.4947m 
   18.00000m  395.2521m  343.3505m 
   18.10000m  395.3963m  343.2063m 
   18.20000m  395.5405m  343.0621m 
   18.30000m  395.6847m  342.9180m 
   18.40000m  395.8289m  342.7738m 
   18.50000m  395.9730m  342.6296m 
   18.60000m  396.1172m  342.4855m 
   18.70000m  396.2614m  342.3413m 
   18.80000m  396.4056m  342.1971m 
   18.90000m  396.5498m  342.0529m 
   19.00000m  396.6939m  341.9088m 
   19.10000m  396.8381m  341.7646m 
   19.20000m  396.9823m  341.6204m 
   19.30000m  397.1265m  341.4763m 
   19.40000m  397.2707m  341.3321m 
   19.50000m  397.4148m  341.1879m 
   19.60000m  397.5590m  341.0437m 
   19.70000m  397.7032m  340.8996m 
   19.80000m  397.8474m  340.7554m 
   19.90000m  397.9916m  340.6112m 
   20.00000m  398.1358m  340.4671m 
   20.10000m  398.2799m  340.3229m 
   20.20000m  398.4241m  340.1787m 
   20.30000m  398.5683m  340.0345m 
   20.40000m  398.7125m  339.8904m 
   20.50000m  398.8567m  339.7462m 
   20.60000m  399.0009m  339.6020m 
   20.70000m  399.1450m  339.4579m 
   20.80000m  399.2892m  339.3137m 
   20.90000m  399.4334m  339.1695m 
   21.00000m  399.5776m  339.0253m 
   21.10000m  399.7218m  338.8812m 
   21.20000m  399.8660m  338.7370m 
   21.30000m  400.0101m  338.5928m 
   21.40000m  400.1543m  338.4486m 
   21.50000m  400.2985m  338.3045m 
   21.60000m  400.4427m  338.1603m 
   21.70000m  400.5869m  338.0161m 
   21.80000m  400.7311m  337.8720m 
   21.90000m  400.8752m  337.7278m 
   22.00000m  401.0194m  337.5836m 
   22.10000m  401.1636m  337.4394m 
   22.20000m  401.3078m  337.2953m 
   22.30000m  401.4520m  337.1511m 
   22.40000m  401.5962m  337.0069m 
   22.50000m  401.7404m  336.8627m 
   22.60000m  401.8845m  336.7186m 
   22.70000m  402.0287m  336.5744m 
   22.80000m  402.1729m  336.4302m 
   22.90000m  402.3171m  336.2861m 
   23.00000m  402.4613m  336.1419m 
   23.10000m  402.6055m  335.9977m 
   23.20000m  402.7497m  335.8535m 
   23.30000m  402.8938m  335.7094m 
   23.40000m  403.0380m  335.5652m 
   23.50000m  403.1822m  335.4210m 
   23.60000m  403.3264m  335.2768m 
   23.70000m  403.4706m  335.1327m 
   23.80000m  403.6148m  334.9885m 
   23.90000m  403.7590m  334.8443m 
   24.00000m  403.9032m  334.7001m 
   24.10000m  404.0473m  334.5560m 
   24.20000m  404.1915m  334.4118m 
   24.30000m  404.3357m  334.2676m 
   24.40000m  404.4799m  334.1234m 
   24.50000m  404.6241m  333.9793m 
   24.60000m  404.7683m  333.8351m 
   24.70000m  404.9125m  333.6909m 
   24.80000m  405.0567m  333.5467m 
   24.90000m  405.2008m  333.4026m 
   25.00000m  405.3450m  333.2584m 
   25.10000m  405.4892m  333.1142m 
   25.20000m  405.6334m  332.9700m 
   25.30000m  405.7776m  332.8259m 
   25.40000m  405.9218m  332.6817m 
   25.50000m  406.0660m  332.5375m 
   25.60000m  406.2102m  332.3933m 
   25.70000m  406.3544m  332.2492m 
   25.80000m  406.4985m  332.1050m 
   25.90000m  406.6427m  331.9608m 
   26.00000m  406.7869m  331.8166m 
   26.10000m  406.9311m  331.6724m 
   26.20000m  407.0753m  331.5283m 
   26.30000m  407.2195m  331.3841m 
   26.40000m  407.3637m  331.2399m 
   26.50000m  407.5079m  331.0957m 
   26.60000m  407.6521m  330.9516m 
   26.70000m  407.7963m  330.8074m 
   26.80000m  407.9404m  330.6632m 
   26.90000m  408.0846m  330.5190m 
   27.00000m  408.2288m  330.3749m 
   27.10000m  408.3730m  330.2307m 
   27.20000m  408.5172m  330.0865m 
   27.30000m  408.6614m  329.9423m 
   27.40000m  408.8056m  329.7981m 
   27.50000m  408.9498m  329.6540m 
   27.60000m  409.0940m  329.5098m 
   27.70000m  409.2382m  329.3656m 
   27.80000m  409.3824m  329.2214m 
   27.90000m  409.5265m  329.0773m 
   28.00000m  409.6707m  328.9331m 
   28.10000m  409.8149m  328.7889m 
   28.20000m  409.9591m  328.6447m 
   28.30000m  410.1033m  328.5005m 
   28.40000m  410.2475m  328.3564m 
   28.50000m  410.3917m  328.2122m 
   28.60000m  410.5359m  328.0680m 
   28.70000m  410.6801m  327.9238m 
   28.80000m  410.8243m  327.7797m 
   28.90000m  410.9685m  327.6355m 
   29.00000m  411.1127m  327.4913m 
   29.10000m  411.2569m  327.3471m 
   29.20000m  411.4011m  327.2029m 
   29.30000m  411.5453m  327.0588m 
   29.40000m  411.6894m  326.9146m 
   29.50000m  411.8336m  326.7704m 
   29.60000m  411.9778m  326.6262m 
   29.70000m  412.1220m  326.4820m 
   29.80000m  412.2662m  326.3379m 
   29.90000m  412.4104m  326.1937m 
   30.00000m  412.5546m  326.0495m 
   30.10000m  412.6988m  325.9053m 
   30.20000m  412.8430m  325.7611m 
   30.30000m  412.9872m  325.6170m 
   30.40000m  413.1314m  325.4728m 
   30.50000m  413.2756m  325.3286m 
   30.60000m  413.4198m  325.1844m 
   30.70000m  413.5640m  325.0402m 
   30.80000m  413.7082m  324.8960m 
   30.90000m  413.8524m  324.7519m 
   31.00000m  413.9966m  324.6077m 
   31.10000m  414.1408m  324.4635m 
   31.20000m  414.2850m  324.3193m 
   31.30000m  414.4292m  324.1751m 
   31.40000m  414.5734m  324.0310m 
   31.50000m  414.7176m  323.8868m 
   31.60000m  414.8618m  323.7426m 
   31.70000m  415.0060m  323.5984m 
   31.80000m  415.1502m  323.4542m 
   31.90000m  415.2944m  323.3100m 
   32.00000m  415.4386m  323.1659m 
   32.10000m  415.5827m  323.0217m 
   32.20000m  415.7269m  322.8775m 
   32.30000m  415.8711m  322.7333m 
   32.40000m  416.0153m  322.5891m 
   32.50000m  416.1595m  322.4449m 
   32.60000m  416.3037m  322.3008m 
   32.70000m  416.4479m  322.1566m 
   32.80000m  416.5921m  322.0124m 
   32.90000m  416.7363m  321.8682m 
   33.00000m  416.8805m  321.7240m 
   33.10000m  417.0247m  321.5798m 
   33.20000m  417.1689m  321.4357m 
   33.30000m  417.3131m  321.2915m 
   33.40000m  417.4573m  321.1473m 
   33.50000m  417.6015m  321.0031m 
   33.60000m  417.7457m  320.8589m 
   33.70000m  417.8899m  320.7147m 
   33.80000m  418.0341m  320.5706m 
   33.90000m  418.1783m  320.4264m 
   34.00000m  418.3225m  320.2822m 
   34.10000m  418.4667m  320.1380m 
   34.20000m  418.6110m  319.9938m 
   34.30000m  418.7552m  319.8496m 
   34.40000m  418.8994m  319.7054m 
   34.50000m  419.0436m  319.5613m 
   34.60000m  419.1878m  319.4171m 
   34.70000m  419.3320m  319.2729m 
   34.80000m  419.4762m  319.1287m 
   34.90000m  419.6204m  318.9845m 
   35.00000m  419.7646m  318.8403m 
   35.10000m  419.9088m  318.6961m 
   35.20000m  420.0530m  318.5520m 
   35.30000m  420.1972m  318.4078m 
   35.40000m  420.3414m  318.2636m 
   35.50000m  420.4856m  318.1194m 
   35.60000m  420.6298m  317.9752m 
   35.70000m  420.7740m  317.8310m 
   35.80000m  420.9182m  317.6868m 
   35.90000m  421.0624m  317.5426m 
   36.00000m  421.2066m  317.3985m 
   36.10000m  421.3508m  317.2543m 
   36.20000m  421.4950m  317.1101m 
   36.30000m  421.6392m  316.9659m 
   36.40000m  421.7834m  316.8217m 
   36.50000m  421.9276m  316.6775m 
   36.60000m  422.0718m  316.5333m 
   36.70000m  422.2160m  316.3891m 
   36.80000m  422.3603m  316.2449m 
   36.90000m  422.5045m  316.1008m 
   37.00000m  422.6487m  315.9566m 
   37.10000m  422.7929m  315.8124m 
   37.20000m  422.9371m  315.6682m 
   37.30000m  423.0813m  315.5240m 
   37.40000m  423.2255m  315.3798m 
   37.50000m  423.3697m  315.2356m 
   37.60000m  423.5139m  315.0914m 
   37.70000m  423.6581m  314.9472m 
   37.80000m  423.8023m  314.8030m 
   37.90000m  423.9465m  314.6588m 
   38.00000m  424.0907m  314.5147m 
   38.10000m  424.2350m  314.3705m 
   38.20000m  424.3792m  314.2263m 
   38.30000m  424.5234m  314.0821m 
   38.40000m  424.6676m  313.9379m 
   38.50000m  424.8118m  313.7937m 
   38.60000m  424.9560m  313.6495m 
   38.70000m  425.1002m  313.5053m 
   38.80000m  425.2444m  313.3611m 
   38.90000m  425.3886m  313.2169m 
   39.00000m  425.5328m  313.0727m 
   39.10000m  425.6770m  312.9285m 
   39.20000m  425.8213m  312.7844m 
   39.30000m  425.9655m  312.6402m 
   39.40000m  426.1097m  312.4960m 
   39.50000m  426.2539m  312.3518m 
   39.60000m  426.3981m  312.2076m 
   39.70000m  426.5423m  312.0634m 
   39.80000m  426.6865m  311.9192m 
   39.90000m  426.8307m  311.7750m 
   40.00000m  426.9749m  311.6308m 
   40.10000m  427.1192m  311.4866m 
   40.20000m  427.2634m  311.3424m 
   40.30000m  427.4076m  311.1982m 
   40.40000m  427.5518m  311.0540m 
   40.50000m  427.6960m  310.9098m 
   40.60000m  427.8402m  310.7656m 
   40.70000m  427.9844m  310.6214m 
   40.80000m  428.1287m  310.4772m 
   40.90000m  428.2729m  310.3330m 
   41.00000m  428.4171m  310.1888m 
   41.10000m  428.5613m  310.0446m 
   41.20000m  428.7055m  309.9005m 
   41.30000m  428.8497m  309.7563m 
   41.40000m  428.9939m  309.6121m 
   41.50000m  429.1382m  309.4679m 
   41.60000m  429.2824m  309.3237m 
   41.70000m  429.4266m  309.1795m 
   41.80000m  429.5708m  309.0353m 
   41.90000m  429.7150m  308.8911m 
   42.00000m  429.8592m  308.7469m 
   42.10000m  430.0034m  308.6027m 
   42.20000m  430.1477m  308.4585m 
   42.30000m  430.2919m  308.3143m 
   42.40000m  430.4361m  308.1701m 
   42.50000m  430.5803m  308.0259m 
   42.60000m  430.7245m  307.8817m 
   42.70000m  430.8687m  307.7375m 
   42.80000m  431.0130m  307.5933m 
   42.90000m  431.1572m  307.4491m 
   43.00000m  431.3014m  307.3049m 
   43.10000m  431.4456m  307.1607m 
   43.20000m  431.5898m  307.0165m 
   43.30000m  431.7341m  306.8723m 
   43.40000m  431.8783m  306.7281m 
   43.50000m  432.0225m  306.5839m 
   43.60000m  432.1667m  306.4397m 
   43.70000m  432.3109m  306.2955m 
   43.80000m  432.4552m  306.1513m 
   43.90000m  432.5994m  306.0071m 
   44.00000m  432.7436m  305.8629m 
   44.10000m  432.8878m  305.7187m 
   44.20000m  433.0320m  305.5745m 
   44.30000m  433.1763m  305.4303m 
   44.40000m  433.3205m  305.2861m 
   44.50000m  433.4647m  305.1419m 
   44.60000m  433.6089m  304.9977m 
   44.70000m  433.7531m  304.8534m 
   44.80000m  433.8974m  304.7092m 
   44.90000m  434.0416m  304.5650m 
   45.00000m  434.1858m  304.4208m 
   45.10000m  434.3300m  304.2766m 
   45.20000m  434.4742m  304.1324m 
   45.30000m  434.6185m  303.9882m 
   45.40000m  434.7627m  303.8440m 
   45.50000m  434.9069m  303.6998m 
   45.60000m  435.0511m  303.5556m 
   45.70000m  435.1954m  303.4114m 
   45.80000m  435.3396m  303.2672m 
   45.90000m  435.4838m  303.1230m 
   46.00000m  435.6280m  302.9788m 
   46.10000m  435.7723m  302.8346m 
   46.20000m  435.9165m  302.6904m 
   46.30000m  436.0607m  302.5462m 
   46.40000m  436.2049m  302.4020m 
   46.50000m  436.3492m  302.2577m 
   46.60000m  436.4934m  302.1135m 
   46.70000m  436.6376m  301.9693m 
   46.80000m  436.7818m  301.8251m 
   46.90000m  436.9261m  301.6809m 
   47.00000m  437.0703m  301.5367m 
   47.10000m  437.2145m  301.3925m 
   47.20000m  437.3587m  301.2483m 
   47.30000m  437.5030m  301.1041m 
   47.40000m  437.6472m  300.9599m 
   47.50000m  437.7914m  300.8157m 
   47.60000m  437.9357m  300.6715m 
   47.70000m  438.0799m  300.5272m 
   47.80000m  438.2241m  300.3830m 
   47.90000m  438.3683m  300.2388m 
   48.00000m  438.5126m  300.0946m 
   48.10000m  438.6568m  299.9504m 
   48.20000m  438.8010m  299.8062m 
   48.30000m  438.9453m  299.6620m 
   48.40000m  439.0895m  299.5178m 
   48.50000m  439.2337m  299.3736m 
   48.60000m  439.3779m  299.2293m 
   48.70000m  439.5222m  299.0851m 
   48.80000m  439.6664m  298.9409m 
   48.90000m  439.8106m  298.7967m 
   49.00000m  439.9549m  298.6525m 
   49.10000m  440.0991m  298.5083m 
   49.20000m  440.2433m  298.3641m 
   49.30000m  440.3876m  298.2198m 
   49.40000m  440.5318m  298.0756m 
   49.50000m  440.6760m  297.9314m 
   49.60000m  440.8203m  297.7872m 
   49.70000m  440.9645m  297.6430m 
   49.80000m  441.1087m  297.4988m 
   49.90000m  441.2530m  297.3546m 
   50.00000m  441.3972m  297.2103m 
   50.10000m  441.5414m  297.0661m 
   50.20000m  441.6857m  296.9219m 
   50.30000m  441.8299m  296.7777m 
   50.40000m  441.9741m  296.6335m 
